Frequency [Hz]	Re(Zlong) [Ohm]	Im(Zlong) [Ohm]
1.00000000e-06 1.80039862e-07 2.01551818e-06
1.00000000e-05 1.87276162e-06 1.74862775e-05
1.00000000e-05 1.87276162e-06 1.74862775e-05
1.05080948e-05 1.97015140e-06 1.83116384e-05
1.10420057e-05 2.07248322e-06 1.91755314e-05
1.16030443e-05 2.17998072e-06 2.00797385e-05
1.21925890e-05 2.29287528e-06 2.10261262e-05
1.48335642e-05 2.79719366e-06 2.52230148e-05
1.80465877e-05 3.40631247e-06 3.02491131e-05
2.42433508e-05 4.56578278e-06 3.97526228e-05
3.25679328e-05 6.09835637e-06 5.22301556e-05
3.95186975e-05 7.36426388e-06 6.24583240e-05
4.79529193e-05 8.89085331e-06 7.46862885e-05
9.80601147e-05 1.78922289e-05 1.44561620e-04
2.00525562e-04 3.62470519e-05 2.79177213e-04
2.14733559e-04 3.87917370e-05 2.97278786e-04
2.29948247e-04 4.15167610e-05 3.16544505e-04
5.29010622e-04 9.50968924e-05 6.77955383e-04
1.21702271e-03 2.18488374e-04 1.44408129e-03
2.21217298e-03 3.97234434e-04 2.47414337e-03
4.02105012e-03 7.22832963e-04 4.22303546e-03
6.29289142e-03 1.13285303e-03 6.28707764e-03
9.84829369e-03 1.77661875e-03 9.33478629e-03
3.10653394e-02 5.65821707e-03 2.53483313e-02
9.79921340e-02 1.81840785e-02 6.68762795e-02
1.20474266e-01 2.24574252e-02 7.92900538e-02
1.48114428e-01 2.77445411e-02 9.38595465e-02
4.02074140e-01 7.73156354e-02 2.06192182e-01
1.09147783e+00 2.12913571e-01 4.20995144e-01
3.25363215e+00 5.95469546e-01 7.85488244e-01
9.69888886e+00 1.34992650e+00 1.10999784e+00
1.08587617e+01 1.44455354e+00 1.12851469e+00
1.21573417e+01 1.54057610e+00 1.14327033e+00
1.62019542e+01 1.78719620e+00 1.16385858e+00
2.15921644e+01 2.03036073e+00 1.16199170e+00
2.87756376e+01 2.26250364e+00 1.14237765e+00
3.83489727e+01 2.47822968e+00 1.11173826e+00
4.42708767e+01 2.57891471e+00 1.09469084e+00
5.11072499e+01 2.67455673e+00 1.07783246e+00
5.89993057e+01 2.76511861e+00 1.06217496e+00
6.81100642e+01 2.85066814e+00 1.04872574e+00
7.86277194e+01 2.93136150e+00 1.03848762e+00
9.07695261e+01 3.00742822e+00 1.03246444e+00
1.04786288e+02 3.07915880e+00 1.03167164e+00
1.20967539e+02 3.14689569e+00 1.03715082e+00
1.37689539e+02 3.20486980e+00 1.04836764e+00
1.56723111e+02 3.26022981e+00 1.06640596e+00
1.78387797e+02 3.31332486e+00 1.09216252e+00
2.03047311e+02 3.36454098e+00 1.12660483e+00
2.31115643e+02 3.41430885e+00 1.17078634e+00
2.63064013e+02 3.46311507e+00 1.22586191e+00
2.99428779e+02 3.51151733e+00 1.29310341e+00
3.40820444e+02 3.56016430e+00 1.37391469e+00
3.87933904e+02 3.60982092e+00 1.46984524e+00
4.41560114e+02 3.66140000e+00 1.58260137e+00
5.02599365e+02 3.71600113e+00 1.71405304e+00
5.72076403e+02 3.77495769e+00 1.86623402e+00
6.51157630e+02 3.83989235e+00 2.04133192e+00
7.41170684e+02 3.91278093e+00 2.24166350e+00
8.43626730e+02 3.99602273e+00 2.46962948e+00
9.60245832e+02 4.09251330e+00 2.72764177e+00
9.69520045e+02 4.10029603e+00 2.74805818e+00
9.78883830e+02 4.10817210e+00 2.76865394e+00
1.09566229e+03 4.20803629e+00 3.02382556e+00
1.22637213e+03 4.32369737e+00 3.30511469e+00
1.37267534e+03 4.45823446e+00 3.61361202e+00
1.53643216e+03 4.61506140e+00 3.95003071e+00
1.92488375e+03 5.01046250e+00 4.70679238e+00
2.41154641e+03 5.53994082e+00 5.56861350e+00
3.02125055e+03 6.22834035e+00 6.51619431e+00
3.78510437e+03 7.08542658e+00 7.52105437e+00
4.23665810e+03 7.57418265e+00 8.03636802e+00
4.74208110e+03 8.09867426e+00 8.55759585e+00
5.30779982e+03 8.65449942e+00 9.08489011e+00
5.94100741e+03 9.23719206e+00 9.62051104e+00
6.49672917e+03 9.71611643e+00 1.00542118e+01
7.10443313e+03 1.02083476e+01 1.04987777e+01
7.76898171e+03 1.07134050e+01 1.09575812e+01
8.49569216e+03 1.12316557e+01 1.14343034e+01
9.29037909e+03 1.17642888e+01 1.19324306e+01
1.01594010e+04 1.23132349e+01 1.24552580e+01
1.11097113e+04 1.28809896e+01 1.30055863e+01
1.21489135e+04 1.34703978e+01 1.35856389e+01
1.45280316e+04 1.47259205e+01 1.48408821e+01
1.73730517e+04 1.61013451e+01 1.62284245e+01
2.07752113e+04 1.76129129e+01 1.77523049e+01
2.48436148e+04 1.92719358e+01 1.94186006e+01
2.80716073e+04 2.04949551e+01 2.06440925e+01
3.17190210e+04 2.17950435e+01 2.19458211e+01
3.37167745e+04 2.24753438e+01 2.26269287e+01
3.58403522e+04 2.31766315e+01 2.33291222e+01
3.80976788e+04 2.38995687e+01 2.40531065e+01
4.04971782e+04 2.46448491e+01 2.47995928e+01
4.57590772e+04 2.62053347e+01 2.63629544e+01
5.17046678e+04 2.78640668e+01 2.80250968e+01
5.84227837e+04 2.96273067e+01 2.97922047e+01
6.60138011e+04 3.15016369e+01 3.16708654e+01
7.01945076e+04 3.24879615e+01 3.26595612e+01
7.46399814e+04 3.35050404e+01 3.36791558e+01
7.93669907e+04 3.45538315e+01 3.47306184e+01
8.43933652e+04 3.56353232e+01 3.58149484e+01
8.97380641e+04 3.67505350e+01 3.69331768e+01
9.54212469e+04 3.79005186e+01 3.80863666e+01
1.01464350e+05 3.90863583e+01 3.92756140e+01
1.07890168e+05 4.03091725e+01 4.05020498e+01
1.13372012e+05 4.13238514e+01 4.15198170e+01
1.19132385e+05 4.23639890e+01 4.25631986e+01
1.22121415e+05 4.28938039e+01 4.30946962e+01
1.25185440e+05 4.34302242e+01 4.36328413e+01
1.28326342e+05 4.39733322e+01 4.41777171e+01
1.31546048e+05 4.45232115e+01 4.47294081e+01
1.45095050e+05 4.67665885e+01 4.69804067e+01
1.60039574e+05 4.91226679e+01 4.93448883e+01
1.72296626e+05 5.09740435e+01 5.12031525e+01
1.85492417e+05 5.28950083e+01 5.31315312e+01
1.99698842e+05 5.48881778e+01 5.51326804e+01
2.14993304e+05 5.69562662e+01 5.72093574e+01
2.25646209e+05 5.83535418e+01 5.86126142e+01
2.36826965e+05 5.97850167e+01 6.00503657e+01
2.48561726e+05 6.12515278e+01 6.15234637e+01
2.60877944e+05 6.27539327e+01 6.30327810e+01
2.85280463e+05 6.56293983e+01 6.59219404e+01
3.11965594e+05 6.86363443e+01 6.89438586e+01
3.41146852e+05 7.17807827e+01 7.21046671e+01
3.73057724e+05 7.50690002e+01 7.54107835e+01
3.90115647e+05 7.67690689e+01 7.71204192e+01
4.07953538e+05 7.85075708e+01 7.88689257e+01
4.26607060e+05 8.02853708e+01 8.06571897e+01
4.46113507e+05 8.21033648e+01 8.24860978e+01
4.66511879e+05 8.39623196e+01 8.43567390e+01
4.87842958e+05 8.58604911e+01 8.62698528e+01
5.10149394e+05 8.78076864e+01 8.82263461e+01
5.33475782e+05 8.97957371e+01 9.02274752e+01
5.52051760e+05 9.13480250e+01 9.17901779e+01
5.71274565e+05 9.29271076e+01 9.33800376e+01
6.01810182e+05 9.53818391e+01 9.58518880e+01
6.33977981e+05 9.79013216e+01 9.83894038e+01
6.67865205e+05 1.00487263e+02 1.00994342e+02
7.03563760e+05 1.03141417e+02 1.03668507e+02
7.41170464e+05 1.05865582e+02 1.06413753e+02
7.80787312e+05 1.08661605e+02 1.09231983e+02
8.22521749e+05 1.11531382e+02 1.12125152e+02
8.66486965e+05 1.14476858e+02 1.15095271e+02
9.61593059e+05 1.20602947e+02 1.21274666e+02
1.06713805e+06 1.27056488e+02 1.27787361e+02
1.12417843e+06 1.30411486e+02 1.31174327e+02
1.18426772e+06 1.33854982e+02 1.34651500e+02
1.21550630e+06 1.35610644e+02 1.36424669e+02
1.24756889e+06 1.37389311e+02 1.38221305e+02
1.28047722e+06 1.39191284e+02 1.40041720e+02
1.31425361e+06 1.41016869e+02 1.41886234e+02
1.41618252e+06 1.46388210e+02 1.47314698e+02
1.52601667e+06 1.51963955e+02 1.52951994e+02
1.58408800e+06 1.54830897e+02 1.55851479e+02
1.64436918e+06 1.57751880e+02 1.58806243e+02
1.70694432e+06 1.60727922e+02 1.61817351e+02
1.77190070e+06 1.63760061e+02 1.64885890e+02
1.90932311e+06 1.69996879e+02 1.71199715e+02
2.05740353e+06 1.76471034e+02 1.77756849e+02
2.21696854e+06 1.83191560e+02 1.84566788e+02
2.38890886e+06 1.90167830e+02 1.91639404e+02
2.45672476e+06 1.92850041e+02 1.94359615e+02
2.52646580e+06 1.95570057e+02 1.97118709e+02
2.59818665e+06 1.98328411e+02 1.99917251e+02
2.67194349e+06 2.01125642e+02 2.02755811e+02
2.82579799e+06 2.06838939e+02 2.08555316e+02
2.98851167e+06 2.12714425e+02 2.14521973e+02
3.07334899e+06 2.15714422e+02 2.17569506e+02
3.16059465e+06 2.18756703e+02 2.20660672e+02
3.25031703e+06 2.21841864e+02 2.23796106e+02
3.34258642e+06 2.24970509e+02 2.26976450e+02
3.43747515e+06 2.28143251e+02 2.30202359e+02
3.53505755e+06 2.31360712e+02 2.33474495e+02
3.63541011e+06 2.34623522e+02 2.36793533e+02
3.73861146e+06 2.37932320e+02 2.40160154e+02
4.01691394e+06 2.46634095e+02 2.49017861e+02
4.31593328e+06 2.55653940e+02 2.58205241e+02
4.47368930e+06 2.60286755e+02 2.62926444e+02
4.63721163e+06 2.65003480e+02 2.67734786e+02
4.72120072e+06 2.67393783e+02 2.70172146e+02
4.80671103e+06 2.69805635e+02 2.72631907e+02
4.89377009e+06 2.72239231e+02 2.75114279e+02
4.98240597e+06 2.74694767e+02 2.77619475e+02
5.75179634e+06 2.95153001e+02 2.98508768e+02
6.63999709e+06 3.17134159e+02 3.20987535e+02
6.76026060e+06 3.19994441e+02 3.23915193e+02
6.88270232e+06 3.22880510e+02 3.26869857e+02
7.00736170e+06 3.25792597e+02 3.29851783e+02
7.13427891e+06 3.28730939e+02 3.32861227e+02
7.39505112e+06 3.34687332e+02 3.38963712e+02
7.66535509e+06 3.40751608e+02 3.45179418e+02
7.94553921e+06 3.46925721e+02 3.51510496e+02
8.23596462e+06 3.53211660e+02 3.57959136e+02
8.53700567e+06 3.59611451e+02 3.64527573e+02
8.84905037e+06 3.66127156e+02 3.71218088e+02
9.50777425e+06 3.79514745e+02 3.84974693e+02
1.02155336e+07 3.93391681e+02 3.99248111e+02
1.05889319e+07 4.00519220e+02 4.06584821e+02
1.09759786e+07 4.07775854e+02 4.14058271e+02
1.13771726e+07 4.15163921e+02 4.21671078e+02
1.17930311e+07 4.22685803e+02 4.29425911e+02
1.21014756e+07 4.28179509e+02 4.35092398e+02
1.24179874e+07 4.33744596e+02 4.40834783e+02
1.27427774e+07 4.39381991e+02 4.46654113e+02
1.30760623e+07 4.45092634e+02 4.52551447e+02
1.34180642e+07 4.50877476e+02 4.58527863e+02
1.37690111e+07 4.56737481e+02 4.64584451e+02
1.41291370e+07 4.62673627e+02 4.70722320e+02
1.44986818e+07 4.68686902e+02 4.76942593e+02
1.46387125e+07 4.70945444e+02 4.79279571e+02
1.47800956e+07 4.73214866e+02 4.81628187e+02
1.52394659e+07 4.80514525e+02 4.89185156e+02
1.57131135e+07 4.87926756e+02 4.96862691e+02
1.62014822e+07 4.95453294e+02 5.04662778e+02
1.67050296e+07 5.03095903e+02 5.12587435e+02
1.77595621e+07 5.18736522e+02 5.28818713e+02
1.88806637e+07 5.34863265e+02 5.45573392e+02
1.94674810e+07 5.43113638e+02 5.54152439e+02
2.00725367e+07 5.51491244e+02 5.62868933e+02
2.06963977e+07 5.59998046e+02 5.71725152e+02
2.13396486e+07 5.68636037e+02 5.80723417e+02
2.20028919e+07 5.77407240e+02 5.89866088e+02
2.26867490e+07 5.86313709e+02 5.99155566e+02
2.30366072e+07 5.90818319e+02 6.03856121e+02
2.33918607e+07 5.95357530e+02 6.08594298e+02
2.37525926e+07 5.99931608e+02 6.13370409e+02
2.41188874e+07 6.04540822e+02 6.18184770e+02
2.48685104e+07 6.13865735e+02 6.27929515e+02
2.56414319e+07 6.23334455e+02 6.37831109e+02
2.64383760e+07 6.32949198e+02 6.47892178e+02
2.72600895e+07 6.42712217e+02 6.58115389e+02
2.81073420e+07 6.52625798e+02 6.68503460e+02
2.89809275e+07 6.62692264e+02 6.79059159e+02
2.98816643e+07 6.72913973e+02 6.89785300e+02
3.08103962e+07 6.83293318e+02 7.00684750e+02
3.27553532e+07 7.04534682e+02 7.23015303e+02
3.48230888e+07 7.26436258e+02 7.46074799e+02
3.59054019e+07 7.37641014e+02 7.57885634e+02
3.70213536e+07 7.49018569e+02 7.69888098e+02
3.81719894e+07 7.60571587e+02 7.82085439e+02
3.93583874e+07 7.72302775e+02 7.94480968e+02
4.00358516e+07 7.78922360e+02 8.01479905e+02
4.07249767e+07 7.85598675e+02 8.08542100e+02
4.14259635e+07 7.92332207e+02 8.15668151e+02
4.21390162e+07 7.99123445e+02 8.22858661e+02
4.36021536e+07 8.12881023e+02 8.37435511e+02
4.51160935e+07 8.26875418e+02 8.52277612e+02
4.66826000e+07 8.41110706e+02 8.67390027e+02
4.83034982e+07 8.55591035e+02 8.82777925e+02
4.91349318e+07 8.62924405e+02 8.90576824e+02
4.99806767e+07 8.70320623e+02 8.98446580e+02
5.08409791e+07 8.77780227e+02 9.06387870e+02
5.17160897e+07 8.85303761e+02 9.14401377e+02
5.35117591e+07 9.00544814e+02 9.30647810e+02
5.53697771e+07 9.16048223e+02 9.47191491e+02
5.63228405e+07 9.23899719e+02 9.55576584e+02
5.72923087e+07 9.31818504e+02 9.64038146e+02
5.82784640e+07 9.39805154e+02 9.72576912e+02
5.92815938e+07 9.47860251e+02 9.81193624e+02
6.13399502e+07 9.64178139e+02 9.98663893e+02
6.34697762e+07 9.80776921e+02 1.01645505e+03
6.56735533e+07 9.97661433e+02 1.03457331e+03
6.79538493e+07 1.01483659e+03 1.05302505e+03
6.91235185e+07 1.02353473e+03 1.06237798e+03
7.03133210e+07 1.03230741e+03 1.07181673e+03
7.15236031e+07 1.04115527e+03 1.08134212e+03
7.27547174e+07 1.05007897e+03 1.09095500e+03
7.52808833e+07 1.06815645e+03 1.11044662e+03
7.78947619e+07 1.08654512e+03 1.13029850e+03
7.92355411e+07 1.09585782e+03 1.14036174e+03
8.05993987e+07 1.10525033e+03 1.15051770e+03
8.19867320e+07 1.11472335e+03 1.16076730e+03
8.33979451e+07 1.12427755e+03 1.17111144e+03
8.48334490e+07 1.13391363e+03 1.18155106e+03
8.62936617e+07 1.14363230e+03 1.19208708e+03
8.77790086e+07 1.15343426e+03 1.20272046e+03
8.92899224e+07 1.16332024e+03 1.21345215e+03
9.55981618e+07 1.20371869e+03 1.25738147e+03
1.02352072e+08 1.24552000e+03 1.30296295e+03
1.04113827e+08 1.25619520e+03 1.31462418e+03
1.05905907e+08 1.26696189e+03 1.32639386e+03
1.07728834e+08 1.27782086e+03 1.33827307e+03
1.09583138e+08 1.28877289e+03 1.35026290e+03
1.13388048e+08 1.31095937e+03 1.37457883e+03
1.17325072e+08 1.33352779e+03 1.39935058e+03
1.18993467e+08 1.34297725e+03 1.40973373e+03
1.20685587e+08 1.35249367e+03 1.42019711e+03
1.22401770e+08 1.36207752e+03 1.43074138e+03
1.24142357e+08 1.37172928e+03 1.44136721e+03
1.25907696e+08 1.38144944e+03 1.45207527e+03
1.27698139e+08 1.39123847e+03 1.46286625e+03
1.29514042e+08 1.40109687e+03 1.47374083e+03
1.31355768e+08 1.41102513e+03 1.48469971e+03
1.36157085e+08 1.43658529e+03 1.51294663e+03
1.41133900e+08 1.46260847e+03 1.54175469e+03
1.43690115e+08 1.47579631e+03 1.55637288e+03
1.46292627e+08 1.48910306e+03 1.57113588e+03
1.48942277e+08 1.50252980e+03 1.58604521e+03
1.51639917e+08 1.51607760e+03 1.60110244e+03
1.62928002e+08 1.57150148e+03 1.66284220e+03
1.75056373e+08 1.62895161e+03 1.72707796e+03
1.78226991e+08 1.64363936e+03 1.74353956e+03
1.81455035e+08 1.65845956e+03 1.76016571e+03
1.84741545e+08 1.67341340e+03 1.77695817e+03
1.88087581e+08 1.68850209e+03 1.79391875e+03
1.94962560e+08 1.71908886e+03 1.82835156e+03
2.02088833e+08 1.75022974e+03 1.86347893e+03
2.05749062e+08 1.76601111e+03 1.88130780e+03
2.09475585e+08 1.78193478e+03 1.89931603e+03
2.13269603e+08 1.79800205e+03 1.91750558e+03
2.17132339e+08 1.81421421e+03 1.93587842e+03
2.21065036e+08 1.83057256e+03 1.95443655e+03
2.25068961e+08 1.84707843e+03 1.97318200e+03
2.27098038e+08 1.85538710e+03 1.98262561e+03
2.29145406e+08 1.86373315e+03 1.99211682e+03
2.31211233e+08 1.87211674e+03 2.00165589e+03
2.33295684e+08 1.88053805e+03 2.01124308e+03
2.37521131e+08 1.89749450e+03 2.03056290e+03
2.41823110e+08 1.91460386e+03 2.05007838e+03
2.46203005e+08 1.93186751e+03 2.06979170e+03
2.50662230e+08 1.94928684e+03 2.08970502e+03
2.55202220e+08 1.96686326e+03 2.10982055e+03
2.59824438e+08 1.98459819e+03 2.13014053e+03
2.64530373e+08 2.00249306e+03 2.15066722e+03
2.69321543e+08 2.02054930e+03 2.17140291e+03
2.79165786e+08 2.05715177e+03 2.21351057e+03
2.89369856e+08 2.09441740e+03 2.25648240e+03
2.94610917e+08 2.11330265e+03 2.27829842e+03
2.99946905e+08 2.13235822e+03 2.30033777e+03
3.05379538e+08 2.15158565e+03 2.32260296e+03
3.10910567e+08 2.17098648e+03 2.34509651e+03
3.13713535e+08 2.18075241e+03 2.35642972e+03
3.16541773e+08 2.19056228e+03 2.36782099e+03
3.19395509e+08 2.20041629e+03 2.37927063e+03
3.22274972e+08 2.21031463e+03 2.39077897e+03
3.28112011e+08 2.23024513e+03 2.41397310e+03
3.34054769e+08 2.25035538e+03 2.43740602e+03
3.46265142e+08 2.29112164e+03 2.48499903e+03
3.58921828e+08 2.33262657e+03 2.53357993e+03
3.65422614e+08 2.35366021e+03 2.55824785e+03
3.72041142e+08 2.37488356e+03 2.58317122e+03
3.78779544e+08 2.39629834e+03 2.60835295e+03
3.85639993e+08 2.41790627e+03 2.63379597e+03
3.92624697e+08 2.43970910e+03 2.65950325e+03
3.99735909e+08 2.46170858e+03 2.68547781e+03
4.03339669e+08 2.47278262e+03 2.69856628e+03
4.06975918e+08 2.48390649e+03 2.71172271e+03
4.10644950e+08 2.49508041e+03 2.72494750e+03
4.14347059e+08 2.50630462e+03 2.73824104e+03
4.21107787e+08 2.52667350e+03 2.76238882e+03
4.27978828e+08 2.54720797e+03 2.78676378e+03
4.34961980e+08 2.56790938e+03 2.81136825e+03
4.42059074e+08 2.58877909e+03 2.83620461e+03
4.56602552e+08 2.63102887e+03 2.88658266e+03
4.71624502e+08 2.67396842e+03 2.93791752e+03
4.79319803e+08 2.69570038e+03 2.96394999e+03
4.87140664e+08 2.71760901e+03 2.99022922e+03
4.95089136e+08 2.73969577e+03 3.01675777e+03
5.03167300e+08 2.76196211e+03 3.04353827e+03
5.11377271e+08 2.78440948e+03 3.07057335e+03
5.19721201e+08 2.80703935e+03 3.09786568e+03
5.23944083e+08 2.81842319e+03 3.11160916e+03
5.28201276e+08 2.82985322e+03 3.12541797e+03
5.32493060e+08 2.84132962e+03 3.13929245e+03
5.36819717e+08 2.85285259e+03 3.15323294e+03
5.72722847e+08 2.94673536e+03 3.26717558e+03
6.11027220e+08 3.04370910e+03 3.38554862e+03
6.15991988e+08 3.05605319e+03 3.40066619e+03
6.20997097e+08 3.06844737e+03 3.41585635e+03
6.26042873e+08 3.08089184e+03 3.43111947e+03
6.31129648e+08 3.09338681e+03 3.44645596e+03
6.41427528e+08 3.11852905e+03 3.47735058e+03
6.51893434e+08 3.14387575e+03 3.50854336e+03
6.62530108e+08 3.16942856e+03 3.54003748e+03
6.73340337e+08 3.19518918e+03 3.57183618e+03
6.84326951e+08 3.22115930e+03 3.60394272e+03
6.95492829e+08 3.24734061e+03 3.63636041e+03
7.01143904e+08 3.26051101e+03 3.65268699e+03
7.06840896e+08 3.27373485e+03 3.66909261e+03
7.12584178e+08 3.28701236e+03 3.68557770e+03
7.18374125e+08 3.30034375e+03 3.70214268e+03
7.30095537e+08 3.32716905e+03 3.73551408e+03
7.42008202e+08 3.35421252e+03 3.76921026e+03
7.54115242e+08 3.38147594e+03 3.80323474e+03
7.66419826e+08 3.40896110e+03 3.83759107e+03
7.72647203e+08 3.42278740e+03 3.85489481e+03
7.78925180e+08 3.43666981e+03 3.87228286e+03
7.85254166e+08 3.45060857e+03 3.88975568e+03
7.91634578e+08 3.46460390e+03 3.90731374e+03
8.44580024e+08 3.57863091e+03 4.05090267e+03
9.01066523e+08 3.69641359e+03 4.20022040e+03
9.08387942e+08 3.71140663e+03 4.21930052e+03
9.15768850e+08 3.72646053e+03 4.23847463e+03
9.23209730e+08 3.74157554e+03 4.25774327e+03
9.30711070e+08 3.75675191e+03 4.27710694e+03
9.45897095e+08 3.78728972e+03 4.31612150e+03
9.61330905e+08 3.81807597e+03 4.35552252e+03
9.77016541e+08 3.84911269e+03 4.39531427e+03
9.92958114e+08 3.88040193e+03 4.43550108e+03
1.00915980e+09 3.91194574e+03 4.47608734e+03
1.02562584e+09 3.94374620e+03 4.51707747e+03
1.05936831e+09 4.00812548e+03 4.60028735e+03
1.09422089e+09 4.07355673e+03 4.68516732e+03
1.11207484e+09 4.10667223e+03 4.72824527e+03
1.13022010e+09 4.14005720e+03 4.77175488e+03
1.14866144e+09 4.17371386e+03 4.81570100e+03
1.16740367e+09 4.20764442e+03 4.86008851e+03
1.17302761e+09 4.21777276e+03 4.87335457e+03
1.17867864e+09 4.22792551e+03 4.88666012e+03
1.19472185e+09 4.25661734e+03 4.92430251e+03
1.21098343e+09 4.28550410e+03 4.96226136e+03
1.22746634e+09 4.31458712e+03 5.00053965e+03
1.24417361e+09 4.34386773e+03 5.03914038e+03
1.26110828e+09 4.37334728e+03 5.07806661e+03
1.27827345e+09 4.40302712e+03 5.11732140e+03
1.29567226e+09 4.43290864e+03 5.15690786e+03
1.31330789e+09 4.46299319e+03 5.19682912e+03
1.34930254e+09 4.52377697e+03 5.27768878e+03
1.38628372e+09 4.58538967e+03 5.35992616e+03
1.40515268e+09 4.61651040e+03 5.40156971e+03
1.42427846e+09 4.64784263e+03 5.44356760e+03
1.44366457e+09 4.67938780e+03 5.48592323e+03
1.46331455e+09 4.71114737e+03 5.52864000e+03
1.49499034e+09 4.76189912e+03 5.59705395e+03
1.52735179e+09 4.81319839e+03 5.66639670e+03
1.56041376e+09 4.86505113e+03 5.73668242e+03
1.59419141e+09 4.91746333e+03 5.80792550e+03
1.61135345e+09 4.94388113e+03 5.84391062e+03
1.62870024e+09 4.97044107e+03 5.88014059e+03
1.64623377e+09 4.99714393e+03 5.91661728e+03
1.66395606e+09 5.02399048e+03 5.95334257e+03
1.68186913e+09 5.05098150e+03 5.99031837e+03
1.69997505e+09 5.07811776e+03 6.02754660e+03
1.70910097e+09 5.09174061e+03 6.04625598e+03
1.71827588e+09 5.10540006e+03 6.06502919e+03
1.72750004e+09 5.11909622e+03 6.08386647e+03
1.73677372e+09 5.13282918e+03 6.10276809e+03
1.77436897e+09 5.18813109e+03 6.17902271e+03
1.81277802e+09 5.24402990e+03 6.25632642e+03
1.85201850e+09 5.30053208e+03 6.33469543e+03
1.89210840e+09 5.35764419e+03 6.41414626e+03
1.91247762e+09 5.38643104e+03 6.45428258e+03
1.93306611e+09 5.41537287e+03 6.49469568e+03
