# Frequency [GHz]	Re(Z) [Ohm/m]	Im(Z) [Ohm/m]	|Z| [Ohm/m]
0.000000e+00	3.813527e-01	0.000000e+00	3.813527e-01
4.997214e-03	3.813179e-01	-4.782877e-03	3.813478e-01
9.994428e-03	3.812134e-01	-9.564650e-03	3.813334e-01
1.499164e-02	3.810393e-01	-1.434422e-02	3.813092e-01
1.998886e-02	3.807957e-01	-1.912048e-02	3.812754e-01
2.498607e-02	3.804826e-01	-2.389233e-02	3.812320e-01
2.998328e-02	3.801000e-01	-2.865867e-02	3.811789e-01
3.498050e-02	3.796482e-01	-3.341841e-02	3.811161e-01
3.997771e-02	3.791271e-01	-3.817044e-02	3.810438e-01
4.497493e-02	3.785370e-01	-4.291368e-02	3.809617e-01
4.997214e-02	3.778780e-01	-4.764702e-02	3.808701e-01
5.496935e-02	3.771502e-01	-5.236939e-02	3.807688e-01
5.996657e-02	3.763540e-01	-5.707970e-02	3.806579e-01
6.496378e-02	3.754894e-01	-6.177686e-02	3.805373e-01
6.996100e-02	3.745567e-01	-6.645980e-02	3.804072e-01
7.495821e-02	3.735561e-01	-7.112744e-02	3.802674e-01
7.995542e-02	3.724880e-01	-7.577871e-02	3.801181e-01
8.495264e-02	3.713526e-01	-8.041255e-02	3.799591e-01
8.994985e-02	3.701502e-01	-8.502790e-02	3.797906e-01
9.494707e-02	3.688811e-01	-8.962371e-02	3.796125e-01
9.994428e-02	3.675456e-01	-9.419892e-02	3.794248e-01
1.049415e-01	3.661441e-01	-9.875249e-02	3.792276e-01
1.099387e-01	3.646771e-01	-1.032834e-01	3.790209e-01
1.149359e-01	3.631447e-01	-1.077906e-01	3.788046e-01
1.199331e-01	3.615476e-01	-1.122730e-01	3.785788e-01
1.249304e-01	3.598860e-01	-1.167298e-01	3.783435e-01
1.299276e-01	3.581604e-01	-1.211597e-01	3.780986e-01
1.349248e-01	3.563714e-01	-1.255620e-01	3.778444e-01
1.399220e-01	3.545192e-01	-1.299354e-01	3.775806e-01
1.449192e-01	3.526046e-01	-1.342792e-01	3.773074e-01
1.499164e-01	3.506278e-01	-1.385922e-01	3.770247e-01
1.549136e-01	3.485895e-01	-1.428736e-01	3.767327e-01
1.599108e-01	3.464902e-01	-1.471223e-01	3.764312e-01
1.649081e-01	3.443305e-01	-1.513374e-01	3.761203e-01
1.699053e-01	3.421108e-01	-1.555181e-01	3.758001e-01
1.749025e-01	3.398319e-01	-1.596632e-01	3.754705e-01
1.798997e-01	3.374943e-01	-1.637720e-01	3.751315e-01
1.848969e-01	3.350985e-01	-1.678436e-01	3.747833e-01
1.898941e-01	3.326453e-01	-1.718769e-01	3.744257e-01
1.948913e-01	3.301353e-01	-1.758712e-01	3.740588e-01
1.998886e-01	3.275691e-01	-1.798256e-01	3.736827e-01
2.048858e-01	3.249474e-01	-1.837392e-01	3.732974e-01
2.098830e-01	3.222709e-01	-1.876111e-01	3.729028e-01
2.148802e-01	3.195403e-01	-1.914405e-01	3.724990e-01
2.198774e-01	3.167563e-01	-1.952266e-01	3.720860e-01
2.248746e-01	3.139197e-01	-1.989686e-01	3.716639e-01
2.298718e-01	3.110310e-01	-2.026656e-01	3.712326e-01
2.348691e-01	3.080913e-01	-2.063169e-01	3.707923e-01
2.398663e-01	3.051011e-01	-2.099217e-01	3.703428e-01
2.448635e-01	3.020612e-01	-2.134793e-01	3.698843e-01
2.498607e-01	2.989725e-01	-2.169888e-01	3.694167e-01
2.548579e-01	2.958358e-01	-2.204495e-01	3.689401e-01
2.598551e-01	2.926519e-01	-2.238608e-01	3.684546e-01
2.648523e-01	2.894215e-01	-2.272219e-01	3.679600e-01
2.698496e-01	2.861456e-01	-2.305321e-01	3.674566e-01
2.748468e-01	2.828249e-01	-2.337907e-01	3.669442e-01
2.798440e-01	2.794604e-01	-2.369971e-01	3.664229e-01
2.848412e-01	2.760529e-01	-2.401507e-01	3.658928e-01
2.898384e-01	2.726032e-01	-2.432507e-01	3.653539e-01
2.948356e-01	2.691124e-01	-2.462966e-01	3.648061e-01
2.998328e-01	2.655812e-01	-2.492878e-01	3.642496e-01
3.048301e-01	2.620106e-01	-2.522236e-01	3.636844e-01
3.098273e-01	2.584015e-01	-2.551036e-01	3.631104e-01
3.148245e-01	2.547548e-01	-2.579271e-01	3.625278e-01
3.198217e-01	2.510715e-01	-2.606935e-01	3.619365e-01
3.248189e-01	2.473525e-01	-2.634025e-01	3.613366e-01
3.298161e-01	2.435987e-01	-2.660534e-01	3.607281e-01
3.348133e-01	2.398112e-01	-2.686458e-01	3.601111e-01
3.398106e-01	2.359908e-01	-2.711793e-01	3.594856e-01
3.448078e-01	2.321386e-01	-2.736532e-01	3.588515e-01
3.498050e-01	2.282556e-01	-2.760672e-01	3.582091e-01
3.548022e-01	2.243426e-01	-2.784210e-01	3.575582e-01
3.597994e-01	2.204008e-01	-2.807139e-01	3.568989e-01
3.647966e-01	2.164311e-01	-2.829458e-01	3.562313e-01
3.697938e-01	2.124345e-01	-2.851161e-01	3.555554e-01
3.747911e-01	2.084120e-01	-2.872246e-01	3.548712e-01
3.797883e-01	2.043647e-01	-2.892709e-01	3.541787e-01
3.847855e-01	2.002936e-01	-2.912546e-01	3.534781e-01
3.897827e-01	1.961996e-01	-2.931755e-01	3.527693e-01
3.947799e-01	1.920839e-01	-2.950333e-01	3.520524e-01
3.997771e-01	1.879474e-01	-2.968277e-01	3.513274e-01
4.047743e-01	1.837912e-01	-2.985585e-01	3.505943e-01
4.097716e-01	1.796164e-01	-3.002253e-01	3.498533e-01
4.147688e-01	1.754239e-01	-3.018281e-01	3.491042e-01
4.197660e-01	1.712149e-01	-3.033666e-01	3.483472e-01
4.247632e-01	1.669903e-01	-3.048406e-01	3.475824e-01
4.297604e-01	1.627512e-01	-3.062499e-01	3.468097e-01
4.347576e-01	1.584987e-01	-3.075945e-01	3.460292e-01
4.397548e-01	1.542338e-01	-3.088741e-01	3.452409e-01
4.447521e-01	1.499576e-01	-3.100887e-01	3.444449e-01
4.497493e-01	1.456711e-01	-3.112382e-01	3.436412e-01
4.547465e-01	1.413754e-01	-3.123225e-01	3.428299e-01
4.597437e-01	1.370715e-01	-3.133415e-01	3.420110e-01
4.647409e-01	1.327605e-01	-3.142952e-01	3.411845e-01
4.697381e-01	1.284435e-01	-3.151837e-01	3.403505e-01
4.747353e-01	1.241215e-01	-3.160068e-01	3.395091e-01
4.797325e-01	1.197955e-01	-3.167645e-01	3.386602e-01
4.847298e-01	1.154666e-01	-3.174570e-01	3.378040e-01
4.897270e-01	1.111359e-01	-3.180843e-01	3.369404e-01
4.947242e-01	1.068043e-01	-3.186464e-01	3.360695e-01
4.997214e-01	1.024731e-01	-3.191435e-01	3.351914e-01
5.047186e-01	9.814307e-02	-3.195756e-01	3.343061e-01
5.097158e-01	9.381540e-02	-3.199428e-01	3.334137e-01
5.147130e-01	8.949108e-02	-3.202453e-01	3.325142e-01
5.197103e-01	8.517116e-02	-3.204832e-01	3.316076e-01
5.247075e-01	8.085667e-02	-3.206567e-01	3.306940e-01
5.297047e-01	7.654861e-02	-3.207661e-01	3.297735e-01
5.347019e-01	7.224803e-02	-3.208114e-01	3.288461e-01
5.396991e-01	6.795592e-02	-3.207929e-01	3.279118e-01
5.446963e-01	6.367331e-02	-3.207110e-01	3.269707e-01
5.496935e-01	5.940119e-02	-3.205657e-01	3.260228e-01
5.546908e-01	5.514056e-02	-3.203574e-01	3.250682e-01
5.596880e-01	5.089242e-02	-3.200864e-01	3.241070e-01
5.646852e-01	4.665776e-02	-3.197530e-01	3.231392e-01
5.696824e-01	4.243755e-02	-3.193575e-01	3.221648e-01
5.746796e-01	3.823277e-02	-3.189002e-01	3.211839e-01
5.796768e-01	3.404439e-02	-3.183816e-01	3.201966e-01
5.846740e-01	2.987337e-02	-3.178019e-01	3.192028e-01
5.896713e-01	2.572065e-02	-3.171615e-01	3.182027e-01
5.946685e-01	2.158718e-02	-3.164609e-01	3.171964e-01
5.996657e-01	1.747390e-02	-3.157005e-01	3.161837e-01
6.046629e-01	1.338174e-02	-3.148807e-01	3.151649e-01
6.096601e-01	9.311610e-03	-3.140019e-01	3.141400e-01
6.146573e-01	5.264427e-03	-3.130647e-01	3.131089e-01
6.196545e-01	1.241091e-03	-3.120694e-01	3.120719e-01
6.246518e-01	-2.757508e-03	-3.110166e-01	3.110288e-01
6.296490e-01	-6.730485e-03	-3.099068e-01	3.099799e-01
6.346462e-01	-1.067697e-02	-3.087405e-01	3.089251e-01
6.396434e-01	-1.459610e-02	-3.075182e-01	3.078644e-01
6.446406e-01	-1.848702e-02	-3.062406e-01	3.067981e-01
6.496378e-01	-2.234890e-02	-3.049080e-01	3.057260e-01
6.546350e-01	-2.618089e-02	-3.035212e-01	3.046483e-01
6.596323e-01	-2.998219e-02	-3.020807e-01	3.035650e-01
6.646295e-01	-3.375197e-02	-3.005871e-01	3.024761e-01
6.696267e-01	-3.748946e-02	-2.990410e-01	3.013818e-01
6.746239e-01	-4.119385e-02	-2.974431e-01	3.002821e-01
6.796211e-01	-4.486438e-02	-2.957940e-01	2.991770e-01
6.846183e-01	-4.850028e-02	-2.940943e-01	2.980667e-01
6.896155e-01	-5.210081e-02	-2.923447e-01	2.969510e-01
6.946128e-01	-5.566523e-02	-2.905459e-01	2.958303e-01
6.996100e-01	-5.919282e-02	-2.886986e-01	2.947043e-01
7.046072e-01	-6.268285e-02	-2.868034e-01	2.935733e-01
7.096044e-01	-6.613464e-02	-2.848610e-01	2.924374e-01
7.146016e-01	-6.954750e-02	-2.828723e-01	2.912964e-01
7.195988e-01	-7.292076e-02	-2.808379e-01	2.901506e-01
7.245960e-01	-7.625376e-02	-2.787585e-01	2.889999e-01
7.295933e-01	-7.954585e-02	-2.766350e-01	2.878445e-01
7.345905e-01	-8.279641e-02	-2.744680e-01	2.866844e-01
7.395877e-01	-8.600481e-02	-2.722583e-01	2.855196e-01
7.445849e-01	-8.917046e-02	-2.700068e-01	2.843502e-01
7.495821e-01	-9.229276e-02	-2.677141e-01	2.831763e-01
7.545793e-01	-9.537114e-02	-2.653812e-01	2.819979e-01
7.595765e-01	-9.840505e-02	-2.630088e-01	2.808152e-01
7.645738e-01	-1.013939e-01	-2.605976e-01	2.796280e-01
7.695710e-01	-1.043373e-01	-2.581486e-01	2.784366e-01
7.745682e-01	-1.072345e-01	-2.556626e-01	2.772410e-01
7.795654e-01	-1.100852e-01	-2.531403e-01	2.760412e-01
7.845626e-01	-1.128889e-01	-2.505827e-01	2.748374e-01
7.895598e-01	-1.156450e-01	-2.479906e-01	2.736295e-01
7.945570e-01	-1.183531e-01	-2.453648e-01	2.724176e-01
7.995542e-01	-1.210128e-01	-2.427062e-01	2.712018e-01
8.045515e-01	-1.236237e-01	-2.400157e-01	2.699821e-01
8.095487e-01	-1.261854e-01	-2.372941e-01	2.687587e-01
8.145459e-01	-1.286974e-01	-2.345424e-01	2.675316e-01
8.195431e-01	-1.311593e-01	-2.317614e-01	2.663008e-01
8.245403e-01	-1.335709e-01	-2.289519e-01	2.650664e-01
8.295375e-01	-1.359318e-01	-2.261150e-01	2.638285e-01
8.345347e-01	-1.382417e-01	-2.232514e-01	2.625871e-01
8.395320e-01	-1.405001e-01	-2.203622e-01	2.613423e-01
8.445292e-01	-1.427069e-01	-2.174481e-01	2.600941e-01
8.495264e-01	-1.448618e-01	-2.145102e-01	2.588427e-01
8.545236e-01	-1.469645e-01	-2.115492e-01	2.575881e-01
8.595208e-01	-1.490147e-01	-2.085662e-01	2.563303e-01
8.645180e-01	-1.510122e-01	-2.055620e-01	2.550695e-01
8.695152e-01	-1.529569e-01	-2.025376e-01	2.538056e-01
8.745125e-01	-1.548484e-01	-1.994939e-01	2.525388e-01
8.795097e-01	-1.566866e-01	-1.964319e-01	2.512691e-01
8.845069e-01	-1.584714e-01	-1.933523e-01	2.499966e-01
8.895041e-01	-1.602026e-01	-1.902562e-01	2.487213e-01
8.945013e-01	-1.618801e-01	-1.871445e-01	2.474434e-01
8.994985e-01	-1.635037e-01	-1.840181e-01	2.461628e-01
9.044957e-01	-1.650733e-01	-1.808780e-01	2.448797e-01
9.094930e-01	-1.665889e-01	-1.777250e-01	2.435940e-01
9.144902e-01	-1.680504e-01	-1.745601e-01	2.423060e-01
9.194874e-01	-1.694578e-01	-1.713842e-01	2.410155e-01
9.244846e-01	-1.708109e-01	-1.681983e-01	2.397228e-01
9.294818e-01	-1.721098e-01	-1.650033e-01	2.384279e-01
9.344790e-01	-1.733544e-01	-1.618000e-01	2.371308e-01
9.394762e-01	-1.745448e-01	-1.585895e-01	2.358316e-01
9.444735e-01	-1.756811e-01	-1.553726e-01	2.345303e-01
9.494707e-01	-1.767631e-01	-1.521502e-01	2.332271e-01
9.544679e-01	-1.777911e-01	-1.489233e-01	2.319220e-01
9.594651e-01	-1.787650e-01	-1.456928e-01	2.306151e-01
9.644623e-01	-1.796851e-01	-1.424595e-01	2.293064e-01
9.694595e-01	-1.805512e-01	-1.392244e-01	2.279960e-01
9.744567e-01	-1.813637e-01	-1.359885e-01	2.266840e-01
9.794540e-01	-1.821226e-01	-1.327524e-01	2.253705e-01
9.844512e-01	-1.828280e-01	-1.295173e-01	2.240554e-01
9.894484e-01	-1.834802e-01	-1.262839e-01	2.227389e-01
9.944456e-01	-1.840793e-01	-1.230532e-01	2.214210e-01
9.994428e-01	-1.846255e-01	-1.198259e-01	2.201019e-01
1.004440e+00	-1.851191e-01	-1.166031e-01	2.187815e-01
1.009437e+00	-1.855602e-01	-1.133855e-01	2.174600e-01
1.014434e+00	-1.859490e-01	-1.101741e-01	2.161374e-01
1.019432e+00	-1.862860e-01	-1.069696e-01	2.148138e-01
1.024429e+00	-1.865712e-01	-1.037729e-01	2.134892e-01
1.029426e+00	-1.868050e-01	-1.005849e-01	2.121637e-01
1.034423e+00	-1.869877e-01	-9.740638e-02	2.108374e-01
1.039421e+00	-1.871196e-01	-9.423820e-02	2.095103e-01
1.044418e+00	-1.872010e-01	-9.108117e-02	2.081826e-01
1.049415e+00	-1.872323e-01	-8.793609e-02	2.068542e-01
1.054412e+00	-1.872137e-01	-8.480379e-02	2.055253e-01
1.059409e+00	-1.871458e-01	-8.168505e-02	2.041960e-01
1.064407e+00	-1.870288e-01	-7.858067e-02	2.028662e-01
1.069404e+00	-1.868631e-01	-7.549142e-02	2.015360e-01
1.074401e+00	-1.866492e-01	-7.241808e-02	2.002056e-01
1.079398e+00	-1.863874e-01	-6.936142e-02	1.988750e-01
1.084395e+00	-1.860782e-01	-6.632218e-02	1.975443e-01
1.089393e+00	-1.857221e-01	-6.330112e-02	1.962134e-01
1.094390e+00	-1.853194e-01	-6.029897e-02	1.948826e-01
1.099387e+00	-1.848706e-01	-5.731645e-02	1.935519e-01
1.104384e+00	-1.843763e-01	-5.435429e-02	1.922212e-01
1.109382e+00	-1.838369e-01	-5.141319e-02	1.908908e-01
1.114379e+00	-1.832528e-01	-4.849385e-02	1.895607e-01
1.119376e+00	-1.826247e-01	-4.559695e-02	1.882309e-01
1.124373e+00	-1.819530e-01	-4.272318e-02	1.869015e-01
1.129370e+00	-1.812382e-01	-3.987318e-02	1.855725e-01
1.134368e+00	-1.804810e-01	-3.704763e-02	1.842442e-01
1.139365e+00	-1.796818e-01	-3.424715e-02	1.829164e-01
1.144362e+00	-1.788412e-01	-3.147239e-02	1.815893e-01
1.149359e+00	-1.779598e-01	-2.872397e-02	1.802630e-01
1.154356e+00	-1.770381e-01	-2.600249e-02	1.789375e-01
1.159354e+00	-1.760768e-01	-2.330855e-02	1.776129e-01
1.164351e+00	-1.750765e-01	-2.064273e-02	1.762892e-01
1.169348e+00	-1.740377e-01	-1.800562e-02	1.749666e-01
1.174345e+00	-1.729611e-01	-1.539777e-02	1.736451e-01
1.179343e+00	-1.718472e-01	-1.281972e-02	1.723247e-01
1.184340e+00	-1.706968e-01	-1.027203e-02	1.710056e-01
1.189337e+00	-1.695105e-01	-7.755200e-03	1.696878e-01
1.194334e+00	-1.682889e-01	-5.269758e-03	1.683713e-01
1.199331e+00	-1.670326e-01	-2.816197e-03	1.670563e-01
1.204329e+00	-1.657424e-01	-3.950050e-04	1.657429e-01
1.209326e+00	-1.644189e-01	1.993346e-03	1.644310e-01
1.214323e+00	-1.630627e-01	4.348395e-03	1.631207e-01
1.219320e+00	-1.616747e-01	6.669695e-03	1.618122e-01
1.224317e+00	-1.602553e-01	8.956813e-03	1.605054e-01
1.229315e+00	-1.588054e-01	1.120933e-02	1.592006e-01
1.234312e+00	-1.573257e-01	1.342683e-02	1.578976e-01
1.239309e+00	-1.558168e-01	1.560893e-02	1.565967e-01
1.244306e+00	-1.542795e-01	1.775525e-02	1.552978e-01
1.249304e+00	-1.527144e-01	1.986541e-02	1.540011e-01
1.254301e+00	-1.511224e-01	2.193907e-02	1.527066e-01
1.259298e+00	-1.495040e-01	2.397589e-02	1.514143e-01
1.264295e+00	-1.478601e-01	2.597553e-02	1.501245e-01
1.269292e+00	-1.461914e-01	2.793770e-02	1.488370e-01
1.274290e+00	-1.444987e-01	2.986208e-02	1.475520e-01
1.279287e+00	-1.427825e-01	3.174841e-02	1.462697e-01
1.284284e+00	-1.410438e-01	3.359640e-02	1.449899e-01
1.289281e+00	-1.392832e-01	3.540580e-02	1.437129e-01
1.294278e+00	-1.375015e-01	3.717637e-02	1.424386e-01
1.299276e+00	-1.356995e-01	3.890788e-02	1.411672e-01
1.304273e+00	-1.338778e-01	4.060011e-02	1.398987e-01
1.309270e+00	-1.320374e-01	4.225287e-02	1.386332e-01
1.314267e+00	-1.301788e-01	4.386597e-02	1.373708e-01
1.319265e+00	-1.283028e-01	4.543924e-02	1.361115e-01
1.324262e+00	-1.264104e-01	4.697252e-02	1.348555e-01
1.329259e+00	-1.245020e-01	4.846566e-02	1.336027e-01
1.334256e+00	-1.225787e-01	4.991853e-02	1.323533e-01
1.339253e+00	-1.206410e-01	5.133102e-02	1.311073e-01
1.344251e+00	-1.186898e-01	5.270303e-02	1.298648e-01
1.349248e+00	-1.167258e-01	5.403446e-02	1.286260e-01
1.354245e+00	-1.147498e-01	5.532525e-02	1.273907e-01
1.359242e+00	-1.127625e-01	5.657532e-02	1.261592e-01
1.364239e+00	-1.107647e-01	5.778464e-02	1.249316e-01
1.369237e+00	-1.087572e-01	5.895317e-02	1.237078e-01
1.374234e+00	-1.067407e-01	6.008089e-02	1.224879e-01
1.379231e+00	-1.047160e-01	6.116779e-02	1.212721e-01
1.384228e+00	-1.026837e-01	6.221389e-02	1.200605e-01
1.389226e+00	-1.006447e-01	6.321920e-02	1.188530e-01
1.394223e+00	-9.859973e-02	6.418376e-02	1.176497e-01
1.399220e+00	-9.654950e-02	6.510761e-02	1.164509e-01
1.404217e+00	-9.449475e-02	6.599082e-02	1.152564e-01
1.409214e+00	-9.243623e-02	6.683345e-02	1.140665e-01
1.414212e+00	-9.037466e-02	6.763561e-02	1.128812e-01
1.419209e+00	-8.831079e-02	6.839738e-02	1.117005e-01
1.424206e+00	-8.624533e-02	6.911888e-02	1.105246e-01
1.429203e+00	-8.417901e-02	6.980024e-02	1.093535e-01
1.434200e+00	-8.211255e-02	7.044160e-02	1.081873e-01
1.439198e+00	-8.004665e-02	7.104310e-02	1.070261e-01
1.444195e+00	-7.798204e-02	7.160491e-02	1.058700e-01
1.449192e+00	-7.591940e-02	7.212721e-02	1.047191e-01
1.454189e+00	-7.385945e-02	7.261018e-02	1.035734e-01
1.459187e+00	-7.180286e-02	7.305403e-02	1.024331e-01
1.464184e+00	-6.975034e-02	7.345897e-02	1.012982e-01
1.469181e+00	-6.770256e-02	7.382521e-02	1.001688e-01
1.474178e+00	-6.566019e-02	7.415301e-02	9.904509e-02
1.479175e+00	-6.362391e-02	7.444260e-02	9.792703e-02
1.484173e+00	-6.159438e-02	7.469424e-02	9.681476e-02
1.489170e+00	-5.957225e-02	7.490821e-02	9.570838e-02
1.494167e+00	-5.755817e-02	7.508479e-02	9.460798e-02
1.499164e+00	-5.555279e-02	7.522427e-02	9.351365e-02
1.504161e+00	-5.355674e-02	7.532695e-02	9.242550e-02
1.509159e+00	-5.157065e-02	7.539314e-02	9.134362e-02
1.514156e+00	-4.959513e-02	7.542318e-02	9.026812e-02
1.519153e+00	-4.763081e-02	7.541739e-02	8.919908e-02
1.524150e+00	-4.567827e-02	7.537613e-02	8.813663e-02
1.529148e+00	-4.373813e-02	7.529974e-02	8.708085e-02
1.534145e+00	-4.181097e-02	7.518859e-02	8.603186e-02
1.539142e+00	-3.989736e-02	7.504306e-02	8.498976e-02
1.544139e+00	-3.799788e-02	7.486353e-02	8.395467e-02
1.549136e+00	-3.611309e-02	7.465039e-02	8.292669e-02
1.554134e+00	-3.424354e-02	7.440405e-02	8.190594e-02
1.559131e+00	-3.238978e-02	7.412492e-02	8.089253e-02
1.564128e+00	-3.055234e-02	7.381342e-02	7.988659e-02
1.569125e+00	-2.873174e-02	7.346998e-02	7.888822e-02
1.574122e+00	-2.692851e-02	7.309503e-02	7.789755e-02
1.579120e+00	-2.514316e-02	7.268902e-02	7.691471e-02
1.584117e+00	-2.337616e-02	7.225241e-02	7.593982e-02
1.589114e+00	-2.162802e-02	7.178565e-02	7.497301e-02
1.594111e+00	-1.989922e-02	7.128922e-02	7.401440e-02
1.599108e+00	-1.819021e-02	7.076359e-02	7.306414e-02
1.604106e+00	-1.650145e-02	7.020924e-02	7.212236e-02
1.609103e+00	-1.483339e-02	6.962667e-02	7.118920e-02
1.614100e+00	-1.318647e-02	6.901636e-02	7.026480e-02
1.619097e+00	-1.156111e-02	6.837884e-02	6.934929e-02
1.624095e+00	-9.957727e-03	6.771459e-02	6.844284e-02
1.629092e+00	-8.376724e-03	6.702415e-02	6.754559e-02
1.634089e+00	-6.818494e-03	6.630804e-02	6.665769e-02
1.639086e+00	-5.283420e-03	6.556677e-02	6.577929e-02
1.644083e+00	-3.771873e-03	6.480089e-02	6.491057e-02
1.649081e+00	-2.284213e-03	6.401093e-02	6.405167e-02
1.654078e+00	-8.207896e-04	6.319743e-02	6.320276e-02
1.659075e+00	6.180590e-04	6.236095e-02	6.236401e-02
1.664072e+00	2.032006e-03	6.150204e-02	6.153560e-02
1.669069e+00	3.420736e-03	6.062125e-02	6.071769e-02
1.674067e+00	4.783946e-03	5.971915e-02	5.991046e-02
1.679064e+00	6.121341e-03	5.879630e-02	5.911409e-02
1.684061e+00	7.432641e-03	5.785326e-02	5.832876e-02
1.689058e+00	8.717577e-03	5.689063e-02	5.755466e-02
1.694056e+00	9.975889e-03	5.590895e-02	5.679199e-02
1.699053e+00	1.120733e-02	5.490883e-02	5.604091e-02
1.704050e+00	1.241167e-02	5.389084e-02	5.530164e-02
1.709047e+00	1.358868e-02	5.285556e-02	5.457437e-02
1.714044e+00	1.473814e-02	5.180357e-02	5.385929e-02
1.719042e+00	1.585987e-02	5.073548e-02	5.315660e-02
1.724039e+00	1.695367e-02	4.965186e-02	5.246651e-02
1.729036e+00	1.801936e-02	4.855332e-02	5.178921e-02
1.734033e+00	1.905678e-02	4.744044e-02	5.112491e-02
1.739030e+00	2.006578e-02	4.631382e-02	5.047381e-02
1.744028e+00	2.104621e-02	4.517406e-02	4.983612e-02
1.749025e+00	2.199794e-02	4.402175e-02	4.921203e-02
1.754022e+00	2.292085e-02	4.285749e-02	4.860175e-02
1.759019e+00	2.381485e-02	4.168187e-02	4.800547e-02
1.764017e+00	2.467982e-02	4.049551e-02	4.742341e-02
1.769014e+00	2.551569e-02	3.929898e-02	4.685574e-02
1.774011e+00	2.632239e-02	3.809290e-02	4.630267e-02
1.779008e+00	2.709985e-02	3.687785e-02	4.576438e-02
1.784005e+00	2.784803e-02	3.565444e-02	4.524105e-02
1.789003e+00	2.856689e-02	3.442326e-02	4.473285e-02
1.794000e+00	2.925639e-02	3.318490e-02	4.423996e-02
1.798997e+00	2.991654e-02	3.193996e-02	4.376254e-02
1.803994e+00	3.054731e-02	3.068903e-02	4.330075e-02
1.808991e+00	3.114872e-02	2.943269e-02	4.285471e-02
1.813989e+00	3.172080e-02	2.817154e-02	4.242457e-02
1.818986e+00	3.226355e-02	2.690615e-02	4.201045e-02
1.823983e+00	3.277704e-02	2.563712e-02	4.161245e-02
1.828980e+00	3.326131e-02	2.436502e-02	4.123068e-02
1.833978e+00	3.371641e-02	2.309043e-02	4.086520e-02
1.838975e+00	3.414243e-02	2.181392e-02	4.051608e-02
1.843972e+00	3.453945e-02	2.053607e-02	4.018338e-02
1.848969e+00	3.490757e-02	1.925744e-02	3.986712e-02
1.853966e+00	3.524688e-02	1.797859e-02	3.956731e-02
1.858964e+00	3.555750e-02	1.670010e-02	3.928395e-02
1.863961e+00	3.583956e-02	1.542250e-02	3.901702e-02
