Frequency [Hz]	Re(Zxdip) [Ohm/m]	Im(Zxdip) [Ohm/m]
1.00000000e-06 6.07810286e+02 7.29452349e+09
1.00000000e-05 5.44062624e+03 7.29452310e+09
1.00000000e-05 5.44062624e+03 7.29452310e+09
1.05080948e-05 5.70264347e+03 7.29452307e+09
1.10420057e-05 5.97724107e+03 7.29452305e+09
1.16030443e-05 6.26502104e+03 7.29452303e+09
1.21925890e-05 6.56661404e+03 7.29452300e+09
1.48335642e-05 7.90845737e+03 7.29452289e+09
1.80465877e-05 9.52351008e+03 7.29452275e+09
2.42433508e-05 1.25955303e+04 7.29452248e+09
3.25679328e-05 1.66543775e+04 7.29452212e+09
3.95186975e-05 1.99971686e+04 7.29452181e+09
4.79529193e-05 2.40082202e+04 7.29452145e+09
9.80601147e-05 4.71529387e+04 7.29451927e+09
2.00525562e-04 9.24528527e+04 7.29451481e+09
2.14733559e-04 9.85965241e+04 7.29451419e+09
2.29948247e-04 1.05146663e+05 7.29451353e+09
5.29010622e-04 2.29694667e+05 7.29450053e+09
1.21702271e-03 5.00356520e+05 7.29447061e+09
2.21217298e-03 8.72899359e+05 7.29442733e+09
4.02105012e-03 1.52014754e+06 7.29434866e+09
6.29289142e-03 2.30099681e+06 7.29424983e+09
9.84829369e-03 3.47894813e+06 7.29409514e+09
3.10653394e-02 9.98640406e+06 7.29317072e+09
9.79921340e-02 2.83872180e+07 7.29023872e+09
1.20474266e-01 3.42118904e+07 7.28924804e+09
1.48114428e-01 4.12150155e+07 7.28802601e+09
4.02074140e-01 1.00770414e+08 7.27658767e+09
1.09147783e+00 2.43172819e+08 7.24367713e+09
3.25363215e+00 6.21807545e+08 7.12474148e+09
9.69888886e+00 1.48805494e+09 6.66727599e+09
1.08587617e+01 1.61480632e+09 6.57377275e+09
1.21573417e+01 1.74774395e+09 6.46647917e+09
1.62019542e+01 2.10589221e+09 6.12047560e+09
2.15921644e+01 2.46793366e+09 5.65013035e+09
2.87756376e+01 2.78580174e+09 5.04312926e+09
3.83489727e+01 2.99851087e+09 4.31507851e+09
4.42708767e+01 3.04774095e+09 3.92092444e+09
5.11072499e+01 3.05293774e+09 3.51918520e+09
5.89993057e+01 3.01316821e+09 3.12069393e+09
6.81100642e+01 2.93065878e+09 2.73610354e+09
7.86277194e+01 2.81047879e+09 2.37474722e+09
9.07695261e+01 2.65978874e+09 2.04377178e+09
1.04786288e+02 2.48685558e+09 1.74770021e+09
1.20967539e+02 2.30007085e+09 1.48844189e+09
1.37689539e+02 2.12620391e+09 1.28598972e+09
1.56723111e+02 1.95221748e+09 1.11175085e+09
1.78387797e+02 1.78202983e+09 9.63503182e+08
2.03047311e+02 1.61861232e+09 8.38589418e+08
2.31115643e+02 1.46405921e+09 7.34185578e+08
2.63064013e+02 1.31970743e+09 6.47499106e+08
2.99428779e+02 1.18627590e+09 5.75900575e+08
3.40820444e+02 1.06400381e+09 5.17000071e+08
3.87933904e+02 9.52775428e+08 4.68681668e+08
4.41560114e+02 8.52225762e+08 4.29108707e+08
5.02599365e+02 7.61825792e+08 3.96710409e+08
5.72076403e+02 6.80948383e+08 3.70157833e+08
6.51157630e+02 6.08917439e+08 3.48334825e+08
7.41170684e+02 5.45043090e+08 3.30307694e+08
8.43626730e+02 4.88645653e+08 3.15295888e+08
9.60245832e+02 4.39070731e+08 3.02645011e+08
9.69520045e+02 4.35645244e+08 3.01784225e+08
9.78883830e+02 4.32253670e+08 3.00933163e+08
1.09566229e+03 3.94933906e+08 2.91612277e+08
1.22637213e+03 3.61860918e+08 2.83297914e+08
1.37267534e+03 3.32670943e+08 2.75720777e+08
1.53643216e+03 3.07017680e+08 2.68641714e+08
1.92488375e+03 2.65001601e+08 2.55145207e+08
2.41154641e+03 2.33244928e+08 2.41368465e+08
3.02125055e+03 2.09216406e+08 2.26272414e+08
3.78510437e+03 1.90402092e+08 2.09365720e+08
4.23665810e+03 1.82209695e+08 2.00272921e+08
4.74208110e+03 1.74487559e+08 1.90868759e+08
5.30779982e+03 1.67038633e+08 1.81287930e+08
5.94100741e+03 1.59724106e+08 1.71687464e+08
6.49672917e+03 1.53962872e+08 1.64163219e+08
7.10443313e+03 1.48223610e+08 1.56802746e+08
7.76898171e+03 1.42512740e+08 1.49669898e+08
8.49569216e+03 1.36850997e+08 1.42812698e+08
9.29037909e+03 1.31268040e+08 1.36264758e+08
1.01594010e+04 1.25796965e+08 1.30042190e+08
1.11097113e+04 1.20469619e+08 1.24146859e+08
1.21489135e+04 1.15312982e+08 1.18568891e+08
1.45280316e+04 1.05583247e+08 1.08287710e+08
1.73730517e+04 9.66729996e+07 9.90156283e+07
2.07752113e+04 8.85472864e+07 9.05805298e+07
2.48436148e+04 8.11240891e+07 8.28625025e+07
2.80716073e+04 7.64145716e+07 7.79646457e+07
3.17190210e+04 7.19734211e+07 7.33516977e+07
3.37167745e+04 6.98482409e+07 7.11476749e+07
3.58403522e+04 6.77842712e+07 6.90096263e+07
3.80976788e+04 6.57798803e+07 6.69357708e+07
4.04971782e+04 6.38335067e+07 6.49243008e+07
4.57590772e+04 6.01087385e+07 6.10812488e+07
5.17046678e+04 5.65979832e+07 5.74661336e+07
5.84227837e+04 5.32895066e+07 5.40652644e+07
6.60138011e+04 5.01719769e+07 5.08658276e+07
7.01945076e+04 4.86735574e+07 4.93298167e+07
7.46399814e+04 4.72193437e+07 4.78402277e+07
7.93669907e+04 4.58080620e+07 4.63956602e+07
8.43933652e+04 4.44384752e+07 4.49947560e+07
8.97380641e+04 4.31093805e+07 4.36361973e+07
9.54212469e+04 4.18196083e+07 4.23187053e+07
1.01464350e+05 4.05680213e+07 4.10410394e+07
1.07890168e+05 3.93535132e+07 3.98019962e+07
1.13372012e+05 3.83995918e+07 3.88293361e+07
1.19132385e+05 3.74685711e+07 3.78804773e+07
1.22121415e+05 3.70114796e+07 3.74147909e+07
1.25185440e+05 3.65599121e+07 3.69548377e+07
1.28326342e+05 3.61138030e+07 3.65005470e+07
1.31546048e+05 3.56730878e+07 3.60518492e+07
1.45095050e+05 3.39812446e+07 3.43302866e+07
1.60039574e+05 3.23689753e+07 3.26910591e+07
1.72296626e+05 3.12055565e+07 3.15090124e+07
1.85492417e+05 3.00836330e+07 3.03697799e+07
1.99698842e+05 2.90017476e+07 2.92718113e+07
2.14993304e+05 2.79584928e+07 2.82136123e+07
2.25646209e+05 2.72951092e+07 2.75410143e+07
2.36826965e+05 2.66473594e+07 2.68844833e+07
2.48561726e+05 2.60148800e+07 2.62436356e+07
2.60877944e+05 2.53973159e+07 2.56180966e+07
2.85280463e+05 2.42935596e+07 2.45005695e+07
3.11965594e+05 2.32374896e+07 2.34319022e+07
3.41146852e+05 2.22270697e+07 2.24099589e+07
3.73057724e+05 2.12603488e+07 2.14326970e+07
3.90115647e+05 2.07927881e+07 2.09602078e+07
4.07953538e+05 2.03354573e+07 2.04981633e+07
4.26607060e+05 1.98881362e+07 2.00463325e+07
4.46113507e+05 1.94506066e+07 1.96044881e+07
4.66511879e+05 1.90225381e+07 1.91724108e+07
4.87842958e+05 1.86038993e+07 1.87497623e+07
5.10149394e+05 1.81946599e+07 1.83367062e+07
5.33475782e+05 1.77942174e+07 1.79326561e+07
5.52051760e+05 1.74935957e+07 1.76293793e+07
5.71274565e+05 1.71980308e+07 1.73312484e+07
6.01810182e+05 1.67578892e+07 1.68873672e+07
6.33977981e+05 1.63289656e+07 1.64548934e+07
6.67865205e+05 1.59109765e+07 1.60335337e+07
7.03563760e+05 1.55036454e+07 1.56230025e+07
7.41170464e+05 1.51067025e+07 1.52230216e+07
7.80787312e+05 1.47198850e+07 1.48333199e+07
8.22521749e+05 1.43429366e+07 1.44536332e+07
8.66486965e+05 1.39756072e+07 1.40837042e+07
9.61593059e+05 1.32688366e+07 1.33721226e+07
1.06713805e+06 1.25976955e+07 1.26966453e+07
1.12417843e+06 1.22749247e+07 1.23718698e+07
1.18426772e+06 1.19603990e+07 1.20554407e+07
1.21550630e+06 1.18061624e+07 1.19002889e+07
1.24756889e+06 1.16539090e+07 1.17471438e+07
1.28047722e+06 1.15036133e+07 1.15959793e+07
1.31425361e+06 1.13552505e+07 1.14467699e+07
1.41618252e+06 1.09401115e+07 1.10293208e+07
1.52601667e+06 1.05401096e+07 1.06271747e+07
1.58408800e+06 1.03456127e+07 1.04316642e+07
1.64436918e+06 1.01546957e+07 1.02397708e+07
1.70694432e+06 9.96729314e+06 1.00514274e+07
1.77190070e+06 9.78334054e+06 9.86656846e+06
1.90932311e+06 9.42553368e+06 9.50704723e+06
2.05740353e+06 9.08078320e+06 9.16070556e+06
2.21696854e+06 8.74861479e+06 8.82706032e+06
2.38890886e+06 8.42857127e+06 8.50564607e+06
2.45672476e+06 8.31166774e+06 8.38825464e+06
2.52646580e+06 8.19638233e+06 8.27249476e+06
2.59818665e+06 8.08269273e+06 8.15834378e+06
2.67194349e+06 7.97057696e+06 8.04577933e+06
2.82579799e+06 7.75098034e+06 7.82532213e+06
2.98851167e+06 7.53742243e+06 7.61095042e+06
3.07334899e+06 7.43285610e+06 7.50599394e+06
3.16059465e+06 7.32973777e+06 7.40249620e+06
3.25031703e+06 7.22804745e+06 7.30043693e+06
3.34258642e+06 7.12776544e+06 7.19979614e+06
3.43747515e+06 7.02887230e+06 7.10055411e+06
3.53505755e+06 6.93134887e+06 7.00269140e+06
3.63541011e+06 6.83517623e+06 6.90618884e+06
3.73861146e+06 6.74033576e+06 6.81102753e+06
4.01691394e+06 6.50303575e+06 6.57294445e+06
4.31593328e+06 6.27407705e+06 6.34325683e+06
4.47368930e+06 6.16263395e+06 6.23146840e+06
4.63721163e+06 6.05316737e+06 6.12166865e+06
4.72120072e+06 5.99916433e+06 6.06750345e+06
4.80671103e+06 5.94564236e+06 6.01382220e+06
4.89377009e+06 5.89259718e+06 5.96062058e+06
4.98240597e+06 5.84002458e+06 5.90789430e+06
5.75179634e+06 5.43596003e+06 5.50269463e+06
6.63999709e+06 5.05981706e+06 5.12556809e+06
6.76026060e+06 5.01466508e+06 5.08030279e+06
6.88270232e+06 4.96991553e+06 5.03544193e+06
7.00736170e+06 4.92556483e+06 4.99098188e+06
7.13427891e+06 4.88160942e+06 4.94691907e+06
7.39505112e+06 4.79487048e+06 4.85997101e+06
7.66535509e+06 4.70967095e+06 4.77456973e+06
7.94553921e+06 4.62598359e+06 4.69068770e+06
8.23596462e+06 4.54378162e+06 4.60829791e+06
8.53700567e+06 4.46303872e+06 4.52737381e+06
8.84905037e+06 4.38372907e+06 4.44788932e+06
9.50777425e+06 4.22930838e+06 4.29313719e+06
1.02155336e+07 4.08032181e+06 4.14384207e+06
1.05889319e+07 4.00780641e+06 4.07118048e+06
1.09759786e+07 3.93657850e+06 3.99981152e+06
1.13771726e+07 3.86661526e+06 3.92971218e+06
1.17930311e+07 3.79789428e+06 3.86085989e+06
1.21014756e+07 3.74922680e+06 3.81210084e+06
1.24179874e+07 3.70118240e+06 3.76396718e+06
1.27427774e+07 3.65375310e+06 3.71645089e+06
1.30760623e+07 3.60693105e+06 3.66954406e+06
1.34180642e+07 3.56070849e+06 3.62323888e+06
1.37690111e+07 3.51507776e+06 3.57752761e+06
1.41291370e+07 3.47003128e+06 3.53240265e+06
1.44986818e+07 3.42556160e+06 3.48785647e+06
1.46387125e+07 3.40915216e+06 3.47141904e+06
1.47800956e+07 3.39282125e+06 3.45506042e+06
1.52394659e+07 3.34133737e+06 3.40349003e+06
1.57131135e+07 3.29063409e+06 3.35270284e+06
1.62014822e+07 3.24069960e+06 3.30268695e+06
1.67050296e+07 3.19152225e+06 3.25343065e+06
1.77595621e+07 3.09539334e+06 3.15715084e+06
1.88806637e+07 3.00215770e+06 3.06377322e+06
1.94674810e+07 2.95659759e+06 3.01814529e+06
2.00725367e+07 2.91172840e+06 2.97321030e+06
2.06963977e+07 2.86753967e+06 2.92895774e+06
2.13396486e+07 2.82402108e+06 2.88537724e+06
2.20028919e+07 2.78116250e+06 2.84245859e+06
2.26867490e+07 2.73895393e+06 2.80019175e+06
2.30366072e+07 2.71809031e+06 2.77929965e+06
2.33918607e+07 2.69738552e+06 2.75856681e+06
2.37525926e+07 2.67683834e+06 2.73799200e+06
2.41188874e+07 2.65644757e+06 2.71757402e+06
2.48685104e+07 2.61613055e+06 2.67720378e+06
2.56414319e+07 2.57642503e+06 2.63744665e+06
2.64383760e+07 2.53732177e+06 2.59829330e+06
2.72600895e+07 2.49881163e+06 2.55973457e+06
2.81073420e+07 2.46088563e+06 2.52176143e+06
2.89809275e+07 2.42353492e+06 2.48436498e+06
2.98816643e+07 2.38675078e+06 2.44753647e+06
3.08103962e+07 2.35052464e+06 2.41126727e+06
3.27553532e+07 2.27971264e+06 2.34037295e+06
3.48230888e+07 2.21103279e+06 2.27161560e+06
3.59054019e+07 2.17747232e+06 2.23801809e+06
3.70213536e+07 2.14442099e+06 2.20493082e+06
3.81719894e+07 2.11187108e+06 2.17234603e+06
3.93583874e+07 2.07981501e+06 2.14025611e+06
4.00358516e+07 2.06215251e+06 2.12257518e+06
4.07249767e+07 2.04463994e+06 2.10504447e+06
4.14259635e+07 2.02727602e+06 2.08766272e+06
4.21390162e+07 2.01005949e+06 2.07042866e+06
4.36021536e+07 1.97606362e+06 2.03639858e+06
4.51160935e+07 1.94264246e+06 2.00294434e+06
4.66826000e+07 1.90978630e+06 1.97005618e+06
4.83034982e+07 1.87748561e+06 1.93772452e+06
4.91349318e+07 1.86154062e+06 1.92176443e+06
4.99806767e+07 1.84573099e+06 1.90593995e+06
5.08409791e+07 1.83005557e+06 1.89024993e+06
5.17160897e+07 1.81451322e+06 1.87469322e+06
5.35117591e+07 1.78382325e+06 1.84397521e+06
5.53697771e+07 1.75365214e+06 1.81377699e+06
5.63228405e+07 1.73875842e+06 1.79887004e+06
5.72923087e+07 1.72399114e+06 1.78408975e+06
5.82784640e+07 1.70934924e+06 1.76943505e+06
5.92815938e+07 1.69483164e+06 1.75490486e+06
6.13399502e+07 1.66616515e+06 1.72621380e+06
6.34697762e+07 1.63798336e+06 1.69800823e+06
6.56735533e+07 1.61027807e+06 1.67027993e+06
6.79538493e+07 1.58304123e+06 1.64302082e+06
6.91235185e+07 1.56959600e+06 1.62956472e+06
7.03133210e+07 1.55626493e+06 1.61622296e+06
7.15236031e+07 1.54304704e+06 1.60299455e+06
7.27547174e+07 1.52994139e+06 1.58987854e+06
7.52808833e+07 1.50406295e+06 1.56397991e+06
7.78947619e+07 1.47862211e+06 1.53851950e+06
7.92355411e+07 1.46606347e+06 1.52595131e+06
8.05993987e+07 1.45361146e+06 1.51348991e+06
8.19867320e+07 1.44126518e+06 1.50113438e+06
8.33979451e+07 1.42902373e+06 1.48888384e+06
8.48334490e+07 1.41688623e+06 1.47673738e+06
8.62936617e+07 1.40485179e+06 1.46469413e+06
8.77790086e+07 1.39291953e+06 1.45275320e+06
8.92899224e+07 1.38108860e+06 1.44091373e+06
9.55981618e+07 1.33476097e+06 1.39455329e+06
1.02352072e+08 1.28998698e+06 1.34974848e+06
1.04113827e+08 1.27903010e+06 1.33878420e+06
1.05905907e+08 1.26816626e+06 1.32791307e+06
1.07728834e+08 1.25739468e+06 1.31713430e+06
1.09583138e+08 1.24671457e+06 1.30644712e+06
1.13388048e+08 1.22562566e+06 1.28534440e+06
1.17325072e+08 1.20489340e+06 1.26459875e+06
1.18993467e+08 1.19641963e+06 1.25611956e+06
1.20685587e+08 1.18800544e+06 1.24770002e+06
1.22401770e+08 1.17965042e+06 1.23933971e+06
1.24142357e+08 1.17135414e+06 1.23103822e+06
1.25907696e+08 1.16311620e+06 1.22279512e+06
1.27698139e+08 1.15493619e+06 1.21461001e+06
1.29514042e+08 1.14681369e+06 1.20648249e+06
1.31355768e+08 1.13874830e+06 1.19841214e+06
1.36157085e+08 1.11849686e+06 1.17814835e+06
1.41133900e+08 1.09860551e+06 1.15824503e+06
1.43690115e+08 1.08879286e+06 1.14842654e+06
1.46292627e+08 1.07906785e+06 1.13869577e+06
1.48942277e+08 1.06942969e+06 1.12905194e+06
1.51639917e+08 1.05987760e+06 1.11949427e+06
1.62928002e+08 1.02251472e+06 1.08210991e+06
1.75056373e+08 9.86468805e+05 1.04604377e+06
1.78226991e+08 9.77657628e+05 1.03722772e+06
1.81455035e+08 9.68925145e+05 1.02849043e+06
1.84741545e+08 9.60270653e+05 1.01983121e+06
1.88087581e+08 9.51693456e+05 1.01124935e+06
1.94962560e+08 9.34768195e+05 9.94314960e+05
2.02088833e+08 9.18143915e+05 9.77681810e+05
2.05749062e+08 9.09942968e+05 9.69476521e+05
2.09475585e+08 9.01815269e+05 9.61344540e+05
2.13269603e+08 8.93760162e+05 9.53285211e+05
2.17132339e+08 8.85777001e+05 9.45297885e+05
2.21065036e+08 8.77865143e+05 9.37381919e+05
2.25068961e+08 8.70023952e+05 9.29536676e+05
2.27098038e+08 8.66129659e+05 9.25640377e+05
2.29145406e+08 8.62252796e+05 9.21761522e+05
2.31211233e+08 8.58393286e+05 9.17900034e+05
2.33295684e+08 8.54551051e+05 9.14055833e+05
2.37521131e+08 8.46918098e+05 9.06418987e+05
2.41823110e+08 8.39353321e+05 8.98850369e+05
2.46203005e+08 8.31856113e+05 8.91349370e+05
2.50662230e+08 8.24425871e+05 8.83915385e+05
2.55202220e+08 8.17061996e+05 8.76547815e+05
2.59824438e+08 8.09763896e+05 8.69246068e+05
2.64530373e+08 8.02530984e+05 8.62009554e+05
2.69321543e+08 7.95362679e+05 8.54837691e+05
2.79165786e+08 7.81217585e+05 8.40685613e+05
2.89369856e+08 7.67324061e+05 8.26785274e+05
2.94610917e+08 7.60470238e+05 8.19928103e+05
2.99946905e+08 7.53677637e+05 8.13132194e+05
3.05379538e+08 7.46945712e+05 8.06396998e+05
3.10910567e+08 7.40273921e+05 7.99721974e+05
3.13713535e+08 7.36960407e+05 7.96406858e+05
3.16541773e+08 7.33661727e+05 7.93106584e+05
3.19395509e+08 7.30377812e+05 7.89821084e+05
3.22274972e+08 7.27108598e+05 7.86550294e+05
3.28112011e+08 7.20614007e+05 7.80052577e+05
3.34054769e+08 7.14177432e+05 7.73612910e+05
3.46265142e+08 7.01476260e+05 7.60905653e+05
3.58921828e+08 6.89000995e+05 7.48424428e+05
3.65422614e+08 6.82846820e+05 7.42267319e+05
3.72041142e+08 6.76747621e+05 7.36165215e+05
3.78779544e+08 6.70702908e+05 7.30117626e+05
3.85639993e+08 6.64712194e+05 7.24124063e+05
3.92624697e+08 6.58774998e+05 7.18184045e+05
3.99735909e+08 6.52890841e+05 7.12297093e+05
4.03339669e+08 6.49968504e+05 7.09373368e+05
4.06975918e+08 6.47059250e+05 7.06462732e+05
4.10644950e+08 6.44163020e+05 7.03565127e+05
4.14347059e+08 6.41279756e+05 7.00680493e+05
4.21107787e+08 6.36112838e+05 6.95511121e+05
4.27978828e+08 6.30987560e+05 6.90383408e+05
4.34961980e+08 6.25903585e+05 6.85297017e+05
4.42059074e+08 6.20860581e+05 6.80251615e+05
4.56602552e+08 6.10896168e+05 6.70282459e+05
4.71624502e+08 6.01091715e+05 6.60473331e+05
4.79319803e+08 5.96248670e+05 6.55627972e+05
4.87140664e+08 5.91444655e+05 6.50821659e+05
4.95089136e+08 5.86679358e+05 6.46054078e+05
5.03167300e+08 5.81952464e+05 6.41324916e+05
5.11377271e+08 5.77263667e+05 6.36633864e+05
5.19721201e+08 5.72612658e+05 6.31980614e+05
5.23944083e+08 5.70301229e+05 6.29668070e+05
5.28201276e+08 5.67999133e+05 6.27364862e+05
5.32493060e+08 5.65706333e+05 6.25070953e+05
5.36819717e+08 5.63422791e+05 6.22786306e+05
5.72722847e+08 5.45483295e+05 6.04838073e+05
6.11027220e+08 5.28115195e+05 5.87461410e+05
6.15991988e+08 5.25983447e+05 5.85328603e+05
6.20997097e+08 5.23860307e+05 5.83204406e+05
6.26042873e+08 5.21745741e+05 5.81088785e+05
6.31129648e+08 5.19639714e+05 5.78981705e+05
6.41427528e+08 5.15453138e+05 5.74793031e+05
6.51893434e+08 5.11300307e+05 5.70638110e+05
6.62530108e+08 5.07180949e+05 5.66516669e+05
6.73340337e+08 5.03094794e+05 5.62428439e+05
6.84326951e+08 4.99041575e+05 5.58373152e+05
6.95492829e+08 4.95021027e+05 5.54350542e+05
7.01143904e+08 4.93022921e+05 5.52351409e+05
7.06840896e+08 4.91032885e+05 5.50360346e+05
7.12584178e+08 4.89050886e+05 5.48377322e+05
7.18374125e+08 4.87076891e+05 5.46402303e+05
7.30095537e+08 4.83152784e+05 5.42476153e+05
7.42008202e+08 4.79260308e+05 5.38581640e+05
7.54115242e+08 4.75399208e+05 5.34718508e+05
7.66419826e+08 4.71569232e+05 5.30886504e+05
7.72647203e+08 4.69665837e+05 5.28982097e+05
7.78925180e+08 4.67770129e+05 5.27085377e+05
7.85254166e+08 4.65882077e+05 5.25196315e+05
7.91634578e+08 4.64001650e+05 5.23314880e+05
8.44580024e+08 4.49229075e+05 5.08534264e+05
9.01066523e+08 4.34927117e+05 4.94224305e+05
9.08387942e+08 4.33171712e+05 4.92467901e+05
9.15768850e+08 4.31423396e+05 4.90718588e+05
9.23209730e+08 4.29682142e+05 4.88976336e+05
9.30711070e+08 4.27947921e+05 4.87241117e+05
9.45897095e+08 4.24500464e+05 4.83791666e+05
9.61330905e+08 4.21080801e+05 4.80370008e+05
9.77016541e+08 4.17688706e+05 4.76975919e+05
9.92958114e+08 4.14323959e+05 4.73609178e+05
1.00915980e+09 4.10986339e+05 4.70269563e+05
1.02562584e+09 4.07675627e+05 4.66956855e+05
1.05936831e+09 4.01134066e+05 4.60411299e+05
1.09422089e+09 3.94697562e+05 4.53970793e+05
1.11207484e+09 3.91518179e+05 4.50789406e+05
1.13022010e+09 3.88364430e+05 4.47633651e+05
1.14866144e+09 3.85236110e+05 4.44503322e+05
1.16740367e+09 3.82133014e+05 4.41398213e+05
1.17302761e+09 3.81216414e+05 4.40481014e+05
1.17867864e+09 3.80302015e+05 4.39566016e+05
1.19472185e+09 3.77741500e+05 4.37003817e+05
1.21098343e+09 3.75198244e+05 4.34458872e+05
1.22746634e+09 3.72672128e+05 4.31931066e+05
1.24417361e+09 3.70163038e+05 4.29420282e+05
1.26110828e+09 3.67670860e+05 4.26926407e+05
1.27827345e+09 3.65195479e+05 4.24449326e+05
1.29567226e+09 3.62736783e+05 4.21988926e+05
1.31330789e+09 3.60294659e+05 4.19545095e+05
1.34930254e+09 3.55459682e+05 4.14706693e+05
1.38628372e+09 3.50689667e+05 4.09933236e+05
1.40515268e+09 3.48328747e+05 4.07570589e+05
1.42427846e+09 3.45983741e+05 4.05223851e+05
1.44366457e+09 3.43654543e+05 4.02892917e+05
1.46331455e+09 3.41341046e+05 4.00577678e+05
1.49499034e+09 3.37708182e+05 3.96942046e+05
1.52735179e+09 3.34114036e+05 3.93345118e+05
1.56041376e+09 3.30558196e+05 3.89786482e+05
1.59419141e+09 3.27040253e+05 3.86265729e+05
1.61135345e+09 3.25295368e+05 3.84519433e+05
1.62870024e+09 3.23559806e+05 3.82782457e+05
1.64623377e+09 3.21833519e+05 3.81054751e+05
1.66395606e+09 3.20116455e+05 3.79336266e+05
1.68186913e+09 3.18408568e+05 3.77626952e+05
1.69997505e+09 3.16709807e+05 3.75926761e+05
1.70910097e+09 3.15863833e+05 3.75080070e+05
1.71827588e+09 3.15020123e+05 3.74235643e+05
1.72750004e+09 3.14178671e+05 3.73393471e+05
1.73677372e+09 3.13339470e+05 3.72553550e+05
1.77436897e+09 3.10005058e+05 3.69216248e+05
1.81277802e+09 3.06706191e+05 3.65914471e+05
1.85201850e+09 3.03442489e+05 3.62647841e+05
1.89210840e+09 3.00213579e+05 3.59415984e+05
1.91247762e+09 2.98612055e+05 3.57812980e+05
1.93306611e+09 2.97019091e+05 3.56218530e+05
