#Parameters = {Nmesh=17; sig_z=0.4; wakelength=200; xbeam=0; xshift=-0; ybeam=0; yshift=-0}
#"Frequency / GHz"	"Z [Re]"	"Z [Im]"
#-----------------------------------
0.0000000000000	-0.029284826640608	-3.7169724261303e-14
0.0085326202249123	-0.029263904555249	0.0016176270045906
0.017065240449825	-0.029201167956047	0.0032336832528386
0.025597860674737	-0.029096705774830	0.0048466001614448
0.034130480899649	-0.028950666101979	0.0064548134905692
0.042663101124561	-0.028763255992635	0.0080567655087690
0.051195721349474	-0.028534741195684	0.0096509071497320
0.059728341574386	-0.028265445805890	0.011235700158190
0.068260961799298	-0.027955751839579	0.012809619222282
0.076793582024211	-0.027606098734408	0.014371154089667
0.085326202249123	-0.027216982773820	0.015918811664779
0.093858822474035	-0.026788956436868	0.017451118084567
0.10239144269895	-0.026322627674261	0.018966620770091
0.11092406292386	-0.025818659111388	0.020463890451448
0.11945668314877	-0.025277767179485	0.021941523163446
0.12798930337368	-0.024700721175794	0.023398142209515
0.13652192359860	-0.024088342254009	0.024832400091393
0.14505454382351	-0.023441502346179	0.026242980402154
0.15358716404842	-0.022761123017377	0.027628599680185
0.16211978427333	-0.022048174254575	0.028988009221783
0.17065240449825	-0.021303673191152	0.030319996850056
0.17918502472316	-0.020528682768594	0.031623388637914
0.18771764494807	-0.019724310337093	0.032897050582925
0.19625026517298	-0.018891706196647	0.034139890232009
0.20478288539790	-0.018032062080507	0.035350858253730
0.21331550562281	-0.017146609582808	0.036528949956383
0.22184812584772	-0.016236618532323	0.037673206749761
0.23038074607263	-0.015303395314273	0.038782717548871
0.23891336629754	-0.014348281142288	0.039856620117672
0.24744598652246	-0.013372650282666	0.040894102351212
0.25597860674737	-0.012377908232983	0.041894403494427
0.26451122697228	-0.011365489857443	0.042856815296107
0.27304384719719	-0.010336857481083	0.043780683096409
0.28157646742211	-0.0092934989453037	0.044665406846601
0.29010908764702	-0.0082369256270372	0.045510442059648
0.29864170787193	-0.0071686704239811	0.046315300690393
0.30717432809684	-0.0060902857084220	0.047079551944129
0.31570694832175	-0.0050033412520671	0.047802823012531
0.32423956854667	-0.0039094221245127	0.048484799735892
0.33277218877158	-0.0028101265679211	0.049125227190799
0.34130480899649	-0.0017070638504457	0.049723910202346
0.34983742922140	-0.00060185210114218	0.050280713780287
0.35837004944632	0.00050388387104307	0.050795563478335
0.36690266967123	0.0016085147714884	0.051268445676180
0.37543528989614	0.0027104090246130	0.051699407783709
0.38396791012105	0.0038079349863908	0.052088558367062
0.39250053034597	0.0048994631619361	0.052436067196310
0.40103315057088	0.0059833684254123	0.052742165214539
0.40956577079579	0.0070580322394485	0.053007144428244
0.41809839102070	0.0081218448715119	0.053231357719107
0.42663101124561	0.0091732076042665	0.053415218577272
0.43516363147053	0.010210534937317	0.053559200756198
0.44369625169544	0.011232256777575	0.053663837849600
0.45222887192035	0.012236820615495	0.053729722790684
0.46076149214526	0.013222693684530	0.053757507274258
0.46929411237018	0.014188365101071	0.053747901102363
0.47782673259509	0.015132347982173	0.053701671453887
0.48635935282000	0.016053181538587	0.053619642079180
0.49489197304491	0.016949433140189	0.053502692420391
0.50342459326983	0.017819700351562	0.053351756658480
0.51195721349474	0.018662612934863	0.053167822687993
0.52048983371965	0.019476834817697	0.052951931020684
0.52902245394456	0.020261066023374	0.052705173619227
0.53755507416947	0.021014044561161	0.052428692662290
0.54608769439439	0.021734548274159	0.052123679242385
0.55462031461930	0.022421396642416	0.051791371997934
0.56315293484421	0.023073452539037	0.051433055681090
0.57168555506912	0.023689623936984	0.051050059662984
0.58021817529404	0.024268865564478	0.050643756378015
0.58875079551895	0.024810180506751	0.050215559709086
0.59728341574386	0.025312621752263	0.049766923315463
0.60581603596877	0.025775293681180	0.049299338905363
0.61434865619369	0.026197353494359	0.048814334455112
0.62288127641860	0.026578012580871	0.048313472376998
0.63141389664351	0.026916537822324	0.047798347637952
0.63994651686842	0.027212252832234	0.047270585831165
0.64847913709333	0.027464539128806	0.046731841202946
0.65701175731825	0.027672837239599	0.046183794637102
0.66554437754316	0.027836647736537	0.045628151599166
0.67407699776807	0.027955532199868	0.045066640042908
0.68260961799298	0.028029114109790	0.044501008281525
0.69114223821790	0.028057079664447	0.043933022826063
0.69967485844281	0.028039178523179	0.043364466193550
0.70820747866772	0.027975224473976	0.042797134687492
0.71674009889263	0.027865096024055	0.042232836153241
0.72527271911754	0.027708736912856	0.041673387710961
0.73380533934246	0.027506156546480	0.041120613468820
0.74233795956737	0.027257430352956	0.040576342219192
0.75087057979228	0.026962700057710	0.040042405120424
0.75940320001719	0.026622173878709	0.039520633367122
0.76793582024211	0.026236126640886	0.039012855851576
0.77646844046702	0.025804899809461	0.038520896819183
0.78500106069193	0.025328901441943	0.038046573520556
0.79353368091684	0.024808606058745	0.037591693863283
0.80206630114176	0.024244554432255	0.037158054065970
0.81059892136667	0.023637353294480	0.036747436317483
0.81913154159158	0.022987674963427	0.036361606444137
0.82766416181649	0.022296256888437	0.036002311587632
0.83619678204140	0.021563901114807	0.035671277896593
0.84472940226632	0.020791473668159	0.035370208234371
0.85326202249123	0.019979903859067	0.035100779905957
0.86179464271614	0.019130183508614	0.034864642406770
0.87032726294105	0.018243366095539	0.034663415195906
0.87885988316597	0.017320565825793	0.034498685496744
0.88739250339088	0.016362956625482	0.034372006127371
0.89592512361579	0.015371771058093	0.034284893363663
0.90445774384070	0.014348299167174	0.034238824837449
0.91299036406562	0.013293887245590	0.034235237472457
0.92152298429053	0.012209936532622	0.034275525460499
0.93005560451544	0.011097901840327	0.034361038280378
0.93858822474035	0.0099592901104506	0.034493078762022
0.94712084496526	0.0087956589036049	0.034672901198164
0.95565346519018	0.0076086148221075	0.034901709505883
0.96418608541509	0.0063998118683157	0.035180655440426
0.97271870564000	0.0051709497401460	0.035510836863349
0.98125132586491	0.0039237720655975	0.035893296067298
0.98978394608983	0.0026600645782359	0.036329018159447
0.99831656631474	0.0013816532355415	0.036818929505660
1.0068491865397	9.0402282292387e-05	0.037363896237329
1.0153818067646	-0.0012117877390763	0.037964722822845
1.0239144269895	-0.0025229820287694	0.038622150705411
1.0324470472144	-0.0038412136185347	0.039336857009111
1.0409796674393	-0.0051644855066687	0.040109453314784
1.0495122876642	-0.0064907728369628	0.040940484507354
1.0580449078891	-0.0078180251190282	0.041830427696137
1.0665775281140	-0.0091441684876311	0.042779691209561
1.0751101483389	-0.010467107998458	0.043788613665644
1.0836427685639	-0.011784729957799	0.044857463119495
1.0921753887888	-0.013094904283537	0.045986436289050
1.1007080090137	-0.014395486894786	0.047175657860102
1.1092406292386	-0.015684322127500	0.048425179871622
1.1177732494635	-0.016959245173354	0.049734981182339
1.1263058696884	-0.018218084539176	0.051104967019340
1.1348384899133	-0.019458664524062	0.052534968609445
1.1433711101382	-0.020678807711522	0.054024742893969
1.1519037303632	-0.021876337473699	0.055573972327484
1.1604363505881	-0.023049080484934	0.057182264760890
1.1689689708130	-0.024194869241752	0.058849153409255
1.1775015910379	-0.025311544586421	0.060574096904648
1.1860342112628	-0.026396958231294	0.062356479434102
1.1945668314877	-0.027448975280911	0.064195610962743
1.2030994517126	-0.028465476749097	0.066090727542095
1.2116320719375	-0.029444362068161	0.068040991703401
1.2201646921625	-0.030383551587281	0.070045492935698
1.2286973123874	-0.031280989057254	0.072103248248348
1.2372299326123	-0.032134644098749	0.074213202817596
1.2457625528372	-0.032942514651193	0.076374230716567
1.2542951730621	-0.033702629399540	0.078585135728193
1.2628277932870	-0.034413050176046	0.080844652240250
1.2713604135119	-0.035071874334337	0.083151446221695
1.2798930337368	-0.035677237092996	0.085504116279536
1.2884256539618	-0.036227313845938	0.087901194795027
1.2969582741867	-0.036720322436945	0.090341149138249
1.3054908944116	-0.037154525395652	0.092822382959878
1.3140235146365	-0.037528232132425	0.095343237558790
1.3225561348614	-0.037839801089540	0.097901993324259
1.3310887550863	-0.038087641846194	0.10049687125120
1.3396213753112	-0.038270217174787	0.10312603452702
1.3481539955361	-0.038386045046202	0.10578759018836
1.3566866157611	-0.038433700581553	0.10847959084617
1.3652192359860	-0.038411817948277	0.11120003647725
1.3737518562109	-0.038319092198136	0.11394687628038
1.3822844764358	-0.038154281045158	0.11671801059527
1.3908170966607	-0.037916206581165	0.11951129288211
1.3993497168856	-0.037603756927094	0.12232453175988
1.4078823371105	-0.037215887817908	0.12515549310109
1.4164149573354	-0.036751624119302	0.12800190218090
1.4249475775604	-0.036210061274403	0.13086144587822
1.4334801977853	-0.035590366678611	0.13373177492657
1.4420128180102	-0.034891780980951	0.13661050621228
1.4505454382351	-0.034113619310380	0.13949522511748
1.4590780584600	-0.033255272425452	0.14238348790563
1.4676106786849	-0.032316207785990	0.14527282414677
1.4761432989098	-0.031295970545338	0.14816073918004
1.4846759191347	-0.030194184462019	0.15104471661088
1.4932085393597	-0.029010552729590	0.15392222084005
1.5017411595846	-0.027744858723588	0.15679069962198
1.5102737798095	-0.026396966664626	0.15964758664944
1.5188064000344	-0.024966822196740	0.16249030416196
1.5273390202593	-0.023454452880126	0.16531626557513
1.5358716404842	-0.021859968597694	0.16812287812780
1.5444042607091	-0.020183561874625	0.17090754554447
1.5529368809340	-0.018425508110633	0.17366767070997
1.5614695011589	-0.016586165724353	0.17640065835344
1.5700021213839	-0.014665976209625	0.17910391773872
1.5785347416088	-0.012665464103392	0.18177486535836
1.5870673618337	-0.010585236865150	0.18441092762800
1.5955999820586	-0.0084259846678461	0.18700954357862
1.6041326022835	-0.0061884801003716	0.18956816754331
1.6126652225084	-0.0038735777817668	0.19208427183588
1.6211978427333	-0.0014822138874202	0.19455534941832
1.6297304629582	0.00098459441235142	0.19697891655411
1.6382630831832	0.0035257496009026	0.19935251544463
1.6467957034081	0.0061400745505132	0.20167371684564
1.6553283236330	0.0088263133435292	0.20394012266105
1.6638609438579	0.011583132178778	0.20614936851105
1.6723935640828	0.014409120362298	0.20829912627193
1.6809261843077	0.017302791381535	0.21038710658459
1.6894588045326	0.020262584061882	0.21241106132914
1.6979914247575	0.023286863804513	0.21436878606291
1.7065240449825	0.026373923904240	0.21625812241889
1.7150566652074	0.029521986946155	0.21807696046236
1.7235892854323	0.032729206279579	0.21982324100281
1.7321219056572	0.035993667567915	0.22149495785875
1.7406545258821	0.039313390412781	0.22309016007280
1.7491871461070	0.042686330050880	0.22460695407474
1.7577197663319	0.046110379121699	0.22604350579001
1.7662523865568	0.049583369504449	0.22739804269144
1.7747850067818	0.053103074222185	0.22866885579178
1.7833176270067	0.056667209411268	0.22985430157498
1.7918502472316	0.060273436354052	0.23095280386403
1.8003828674565	0.063919363572774	0.23196285562317
1.8089154876814	0.067602548982388	0.23288302069270
1.8174481079063	0.071320502100231	0.23371193545421
1.8259807281312	0.075070686310086	0.23444831042452
1.8345133483561	0.078850521178391	0.23509093177653
1.8430459685811	0.082657384820103	0.23563866278528
1.8515785888060	0.086488616311826	0.23609044519758
1.8601112090309	0.090341518149589	0.23644530052365
1.8686438292558	0.094213358748771	0.23670233124943
1.8771764494807	0.098101374983497	0.23686072196808
1.8857090697056	0.10200277476291	0.23691974042941
1.8942416899305	0.10591473964151	0.23687873850615
1.9027743101554	0.10983442746096	0.23673715307587
1.9113069303804	0.11375897502039	0.23649450681751
1.9198395506053	0.11768550077263	0.23615040892176
1.9283721708302	0.12161110754322	0.23570455571432
1.9369047910551	0.12553288526975	0.23515673119141
1.9454374112800	0.12944791375813	0.23450680746686
1.9539700315049	0.13335326545341	0.23375474513023
1.9625026517298	0.13724600822179	0.23290059351559
1.9710352719547	0.14112320814118	0.23194449088061
1.9795678921797	0.14498193229721	0.23088666449564
1.9881005124046	0.14881925158181	0.22972743064270
1.9966331326295	0.15263224349133	0.22846719452439
2.0051657528544	0.15641799492141	0.22710645008264
2.0136983730793	0.16017360495539	0.22564577972760
2.0222309933042	0.16389618764367	0.22408585397678
2.0307636135291	0.16758287477066	0.22242743100488
2.0392962337540	0.17123081860681	0.22067135610479
2.0478288539790	0.17483719464259	0.21881856106009
2.0563614742039	0.17839920430152	0.21687006342996
2.0648940944288	0.18191407762958	0.21482696574708
2.0734267146537	0.18537907595794	0.21269045462933
2.0819593348786	0.18879149453639	0.21046179980626
2.0904919551035	0.19214866513459	0.20814235306138
2.0990245753284	0.19544795860845	0.20573354709119
2.1075571955533	0.19868678742895	0.20323689428248
2.1160898157782	0.20186260817072	0.20065398540871
2.1246224360032	0.20497292395778	0.19798648824733
2.1331550562281	0.20801528686390	0.19523614611909
2.1416876764530	0.21098730026503	0.19240477635115
2.1502202966779	0.21388662114133	0.18949426866542
2.1587529169028	0.21671096232653	0.18650658349397
2.1672855371277	0.21945809470203	0.18344375022317
2.1758181573526	0.22212584933374	0.18030786536851
2.1843507775775	0.22471211954913	0.17710109068191
2.1928833978025	0.22721486295267	0.17382565119366
2.2014160180274	0.22963210337724	0.17048383319093
2.2099486382523	0.23196193276982	0.16707798213506
2.2184812584772	0.23420251300917	0.16361050051977
2.2270138787021	0.23635207765393	0.16008384567263
2.2355464989270	0.23840893361917	0.15650052750203
2.2440791191519	0.24037146277978	0.15286310619210
2.2526117393768	0.24223812349889	0.14917418984787
2.2611443596018	0.24400745208005	0.14543643209342
2.2696769798267	0.24567806414137	0.14165252962527
2.2782096000516	0.24724865591060	0.13782521972373
2.2867422202765	0.24871800543940	0.13395727772487
2.2952748405014	0.25008497373607	0.13005151445560
2.3038074607263	0.25134850581531	0.12611077363482
2.3123400809512	0.25250763166402	0.12213792924311
2.3208727011761	0.25356146712227	0.11813588286390
2.3294053214011	0.25450921467865	0.11410756099882
2.3379379416260	0.25535016417901	0.11005591236011
2.3464705618509	0.25608369344824	0.10598390514294
2.3550031820758	0.25670926882425	0.10189452428036
2.3635358023007	0.25722644560382	0.097790768683926
2.3720684225256	0.25763486840005	0.093675648472839
2.3806010427505	0.25793427141079	0.089552182194449
2.3891336629754	0.25812447859826	0.085423394038987
2.3976662832004	0.25820540377956	0.081292311051601
2.4061989034253	0.25817705062803	0.077161960344412
2.4147315236502	0.25803951258578	0.073035366311603
2.4232641438751	0.25779297268735	0.068915547850370
2.4317967641000	0.25743770329501	0.064805515590690
2.4403293843249	0.25697406574591	0.060708269136677
2.4488620045498	0.25640250991168	0.056626794322493
2.4573946247747	0.25572357367107	0.052564060485541
2.4659272449997	0.25493788229615	0.048523017759816
2.4744598652246	0.25404614775308	0.044506594392193
2.4829924854495	0.25304916791806	0.040517694084382
2.4915251056744	0.25194782570957	0.036559193363296
2.5000577258993	0.25074308813785	0.032633938982510
2.5085903461242	0.24943600527279	0.028744745357470
2.5171229663491	0.24802770913147	0.024894392037087
2.5256555865740	0.24651941248640	0.021085621214199
2.5341882067990	0.24491240759632	0.017321135277556
2.5427208270239	0.24320806486043	0.013603594407667
2.5512534472488	0.24140783139810	0.0099356142190360
2.5597860674737	0.23951322955533	0.0063197634510879
2.5683186876986	0.23752585533982	0.0027585617101040
2.5768513079235	0.23544737678638	-0.00074552273553011
2.5853839281484	0.23327953225447	-0.0041900751046338
2.5939165483733	0.23102412865986	-0.0075727361949584
2.6024491685982	0.22868303964230	-0.010891204415253
2.6109817888232	0.22625820367130	-0.014143237755664
2.6195144090481	0.22375162209208	-0.017326655694617
2.6280470292730	0.22116535711386	-0.020439341040248
2.6365796494979	0.21850152974280	-0.023479241704653
2.6451122697228	0.21576231766168	-0.026444372409259
2.6536448899477	0.21294995305882	-0.029332816319656
2.6621775101726	0.21006672040855	-0.032142726608430
2.6707101303975	0.20711495420562	-0.034872327944422
2.6792427506225	0.20409703665613	-0.037519917907143
2.6877753708474	0.20101539532736	-0.040083868324972
2.6963079910723	0.19787250075913	-0.042562626535982
2.7048406112972	0.19467086403928	-0.044954716570238
2.7133732315221	0.19141303434586	-0.047258740252533
2.7219058517470	0.18810159645869	-0.049473378224639
2.7304384719719	0.18473916824293	-0.051597390886197
2.7389710921968	0.18132839810749	-0.053629619253453
2.7475037124218	0.17787196244082	-0.055568985735243
2.7560363326467	0.17437256302696	-0.057414494825525
2.7645689528716	0.17083292444452	-0.059165233712069
2.7731015730965	0.16725579145143	-0.060820372800841
2.7816341933214	0.16364392635819	-0.062379166155799
2.7901668135463	0.16000010639239	-0.063840951853854
2.7986994337712	0.15632712105729	-0.065205152254913
2.8072320539961	0.15262776948728	-0.066471274186924
2.8157646742211	0.14890485780298	-0.067638909046017
2.8242972944460	0.14516119646872	-0.068707732811883
2.8328299146709	0.14139959765518	-0.069677505978622
2.8413625348958	0.13762287260998	-0.070548073401410
2.8498951551207	0.13383382903887	-0.071319364059401
2.8584277753456	0.13003526850032	-0.071991390735353
2.8669603955705	0.12622998381615	-0.072564249612661
2.8754930157954	0.12242075650088	-0.073038119790372
2.8840256360204	0.11861035421244	-0.073413262717073
2.8925582562453	0.11480152822687	-0.073690021544425
2.9010908764702	0.11099701093948	-0.073868820401372
2.9096234966951	0.10719951339524	-0.073950163589961
2.9181561169200	0.10341172285061	-0.073934634704030
2.9266887371449	0.099636300369503	-0.073822895671771
2.9352213573698	0.095875878455615	-0.073615685723651
2.9437539775947	0.092133058723683	-0.073313820286862
2.9522865978197	0.088410409611790	-0.072918189807850
2.9608192180446	0.084710464137120	-0.072429758504369
2.9693518382695	0.081035717697303	-0.071849563048640
2.9778844584944	0.077388625919527	-0.071178711183304
2.9864170787193	0.073771602559538	-0.070418380271809
2.9949496989442	0.070187017452506	-0.069569815785053
3.0034823191691	0.066637194517767	-0.068634329726175
3.0120149393940	0.063124409819352	-0.067613298995289
3.0205475596190	0.059650889684088	-0.066508163696210
3.0290801798439	0.056218808879145	-0.065320425387174
3.0376128000688	0.052830288850566	-0.064051645277628
3.0461454202937	0.049487396024607	-0.062703442373217
3.0546780405186	0.046192140173238	-0.061277491571126
3.0632106607435	0.042946472845443	-0.059775521708046
3.0717432809684	0.039752285865596	-0.058199313563019
3.0802759011933	0.036611409900330	-0.056550697817444
3.0888085214183	0.033525613095063	-0.054831552974613
3.0973411416432	0.030496599781394	-0.053043803241207
3.1058737618681	0.027526009256396	-0.051189416373107
3.1144063820930	0.024615414634882	-0.049270401487998
3.1229390023179	0.021766321775410	-0.047288806847259
3.1314716225428	0.018980168281064	-0.045246717609618
3.1400042427677	0.016258322575503	-0.043146253559143
3.1485368629926	0.013602083055166	-0.040989566810024
3.1570694832175	0.011012677318027	-0.038778839490823
