#Parameters = {arc_angle=1.6139656200868; central_vac_external_radius=45; central_vac_length=35; copper_sheet_external_radius=35.5; copper_sheet_internal_radius=35; disk_vac_length=2; disk_vac_radius=55; disk_vac_trasl=10; finger_a=10; finger_blend_radius=1; finger_t=1; finger_transl=2.5; fingers_rep=70; meshCells=6.5; mesh_dx=0.2; mesh_dy=0.1; mesh_dz=0.2; pipe_external_radius=35.5; pipe_internal_radius=0; pipe_length=150; sigma_y=0.4; sigma_z=0.4; small_finger_grace_length=0; small_finger_rot=5; small_finger_width=0.1; wakelength=200; x_beam=0; x_path=0; y_beam=0; y_path=0}
#"Frequency / GHz"	"Y [Re]"	"Y [Im]"
#-----------------------------------
0.00000000000000	0.0013309029019368	-9.4142032005286e-14
0.25623423423423	0.0010908546462694	0.014327619005341
0.51246846846847	0.00054753278540909	0.028976007376799
0.76870270270270	-1.4321289894266e-05	0.043925151380076
1.0249369369369	-0.00064130433200347	0.058943584863059
1.2811711711712	-0.0017670019567070	0.074122032288166
1.5374054054054	-0.0036609108290576	0.090226419795845
1.7936396396396	-0.0057097186744898	0.10834283309355
2.0498738738739	-0.0062771844949043	0.12892561646223
2.3061081081081	-0.0034845978753240	0.15099743418111
2.5623423423423	0.0035447339225502	0.17225958449918
2.8185765765766	0.013907716952252	0.19018380016338
3.0748108108108	0.025235250715345	0.20335317964229
3.3310450450450	0.034877288211090	0.21210863498357
3.5872792792793	0.041084751307518	0.21812705414237
3.8435135135135	0.043409225233700	0.22340195024445
4.0997477477477	0.042269534398500	0.22947720284271
4.3559819819820	0.038319607303459	0.23739804738484
4.6122162162162	0.032283929060400	0.24809062797630
4.8684504504505	0.025315409719277	0.26248301161232
5.1246846846847	0.019286474864480	0.28100930179518
5.3809189189189	0.016388327823123	0.30287503118410
5.6371531531532	0.018058210639151	0.32588688146938
5.8933873873874	0.024001998804840	0.34730508792498
6.1496216216216	0.032210255363016	0.36530246937492
6.4058558558559	0.040171362297229	0.37996597271761
6.6620900900901	0.046488848761646	0.39297884740309
6.9183243243243	0.051655840624599	0.40610494678614
7.1745585585586	0.057285922547172	0.41960754435811
7.4307927927928	0.064300916023762	0.43192211437501
7.6870270270270	0.071507136436720	0.44101711145099
7.9432612612613	0.075857672944986	0.44652487843403
8.1994954954955	0.074485579532025	0.45095119810695
8.4557297297297	0.067150225371977	0.45876814030825
8.7119639639640	0.057190809852498	0.47371979198548
8.9681981981982	0.049974806788642	0.49614365714925
9.2244324324324	0.049644695393302	0.52236272639805
9.4806666666667	0.056396114601594	0.54687761984988
9.7369009009009	0.066392434620183	0.56601928522208
9.9931351351351	0.074632544337277	0.58043698768171
10.249369369369	0.078830583451745	0.59440558397291
10.505603603604	0.081357332445185	0.61220458959026
10.761837837838	0.087491582263069	0.63416867031650
11.018072072072	0.10096836694428	0.65558247211043
11.274306306306	0.12010805860675	0.66970845036354
11.530540540541	0.13777941129679	0.67308131897319
11.786774774775	0.14581955620508	0.66912790316614
12.043009009009	0.14106838597953	0.66696006222434
12.299243243243	0.12851222163846	0.67556755654109
12.555477477477	0.11869204815088	0.69725810017049
12.811711711712	0.12059617442265	0.72525794484372
13.067945945946	0.13484310996236	0.74780189118240
13.324180180180	0.15227912398532	0.75641839588695
13.580414414414	0.15962589045223	0.75275996276758
13.836648648649	0.14880414048744	0.74885145900943
14.092882882883	0.12360754017241	0.75993290575879
14.349117117117	0.098787575451026	0.79427611216334
14.605351351351	0.091583607505616	0.84677460740994
14.861585585586	0.11094100847557	0.90090043112307
15.117819819820	0.15147487001058	0.93815422713186
15.374054054054	0.19630387466424	0.94908212583486
15.630288288288	0.22709404472316	0.93875212919250
15.886522522523	0.23488118833299	0.92313488417339
16.142756756757	0.22469833302755	0.91878692595712
16.398990990991	0.21111598721146	0.93262971069972
16.655225225225	0.20781585506630	0.95851466534168
16.911459459459	0.21826260526856	0.98270393706401
17.167693693694	0.23375700003028	0.99439777760187
17.423927927928	0.24012491756160	0.99402799637335
17.680162162162	0.22837772463241	0.99356387596559
17.936396396396	0.20191386969718	1.0085783630860
18.192630630631	0.17519942500476	1.0475615365244
18.448864864865	0.16481551994686	1.1059212720877
18.705099099099	0.17914049377436	1.1688033960021
18.961333333333	0.21384948076365	1.2205668474144
19.217567567568	0.25610244468564	1.2540167911593
19.473801801802	0.29387080280110	1.2728860980422
19.730036036036	0.32316299796289	1.2863538444367
19.986270270270	0.34785362865529	1.3005709064389
20.242504504505	0.37295668705765	1.3143456910580
20.498738738739	0.39762762247907	1.3224714252581
20.754972972973	0.41439530812776	1.3235257485341
21.011207207207	0.41572411818451	1.3248638010199
21.267441441441	0.40236324912688	1.3396402826014
21.523675675676	0.38580508429317	1.3775849844855
21.779909909910	0.38179875030557	1.4371740902904
22.036144144144	0.39971788608279	1.5063906405630
22.292378378378	0.43690332636714	1.5722031148877
22.548612612613	0.48356476967757	1.6308704527006
22.804846846847	0.53466521349190	1.6893982150559
23.061081081081	0.59802208580905	1.7554204811389
23.317315315315	0.68951282003087	1.8234424746511
23.573549549550	0.81672920560336	1.8706575367283
23.829783783784	0.96380824069290	1.8697323809601
24.086018018018	1.0925272832363	1.8121559570250
24.342252252252	1.1643309068883	1.7244900473162
24.598486486486	1.1712315722463	1.6611856258726
24.854720720721	1.1531849171591	1.6726926843288
25.110954954955	1.1849282461876	1.7666139376078
25.367189189189	1.3345673996445	1.8884751313237
25.623423423423	1.6167277070990	1.9393565965453
25.879657657658	1.9700620647831	1.8249745377548
26.135891891892	2.2762888495648	1.5096543586288
26.392126126126	2.4131988780400	1.0435274010671
26.648360360360	2.3132451542024	0.54609066388863
26.904594594595	1.9958439934288	0.15451794116125
27.160828828829	1.5571198436265	-0.035297790380277
27.417063063063	1.1249490203218	-0.0047213628289603
27.673297297297	0.80471177586868	0.18992496267023
27.929531531532	0.64269190379733	0.45171730082065
28.185765765766	0.62102302932166	0.68838932140533
28.442000000000	0.68025094674004	0.84608879353019
28.698234234234	0.75354423144592	0.91945846953253
28.954468468468	0.79519002423592	0.93947425249686
29.210702702703	0.79299282957011	0.94972692400746
29.466936936937	0.76362988889868	0.98373840033072
29.723171171171	0.73695893374015	1.0521905011153
29.979405405405	0.73801097384998	1.1431207544332
30.235639639640	0.77463640086063	1.2327688194119
30.491873873874	0.83567152255188	1.3009218941615
30.748108108108	0.89983999141550	1.3429550264718
31.004342342342	0.95049132444552	1.3721595162441
31.260576576577	0.98783999070112	1.4106883116470
31.516810810811	1.0310307977564	1.4738914084433
31.773045045045	1.1077972997096	1.5573937633521
32.029279279279	1.2371668918212	1.6355363220295
32.285513513514	1.4157775321952	1.6732691719709
32.541747747748	1.6169692964509	1.6448750731027
32.797981981982	1.8040249531313	1.5478029013218
33.054216216216	1.9494973355750	1.4023783190150
33.310450450450	2.0479371622398	1.2372286146333
33.566684684685	2.1131930257197	1.0701179147602
33.822918918919	2.1617782437946	0.89767393500008
34.079153153153	2.1938447525674	0.70205575088145
34.335387387387	2.1859939152375	0.47104391630576
34.591621621622	2.1029978547752	0.21793713696679
34.847855855856	1.9226633661112	-0.013803087164337
35.104090090090	1.6579738844570	-0.16723580249186
35.360324324324	1.3605263644371	-0.20188584439990
35.616558558559	1.1001321867152	-0.11883029502183
35.872792792793	0.93085091419474	0.035930443756912
36.129027027027	0.86361336337909	0.19397298274838
36.385261261261	0.86284138838147	0.30049830810877
36.641495495495	0.87000563089667	0.34216395707590
36.897729729730	0.83984403231575	0.34935818637917
37.153963963964	0.76643641503458	0.37166583870054
37.410198198198	0.68268049167925	0.44273385130085
37.666432432432	0.63423328942874	0.55776746912498
37.922666666667	0.64606832589270	0.67833076648192
38.178900900901	0.70468169918526	0.76045907693967
38.435135135135	0.76800998209057	0.78604250575372
38.691369369369	0.79568566193621	0.77526719479142
38.947603603604	0.77790120092609	0.77133530392143
39.203837837838	0.74210030200365	0.80841700310749
39.460072072072	0.73246220865281	0.88586805783506
39.716306306306	0.77662463200552	0.96749205313125
39.972540540541	0.86345259231789	1.0069189105918
40.228774774775	0.94815714622759	0.98150655837438
40.485009009009	0.98190933088194	0.91078860467272
40.741243243243	0.94575055609597	0.84595718522775
40.997477477477	0.86524435906961	0.83689082976233
41.253711711712	0.79528441073868	0.89887596586592
41.509945945946	0.78477352812472	1.0016475491176
41.766180180180	0.84459755642177	1.0884527058091
42.022414414414	0.94021468483379	1.1127599894430
42.278648648649	1.0138594583838	1.0685174086927
42.534882882883	1.0218559341914	0.99417047333079
42.791117117117	0.96273172761324	0.94790656002991
43.047351351351	0.87797235865557	0.97032277978454
43.303585585586	0.82512547246978	1.0587478349470
43.559819819820	0.84086840375667	1.1697377494297
43.816054054054	0.91806751464649	1.2479264556922
44.072288288288	1.0117191859820	1.2622899655255
44.328522522523	1.0698435802650	1.2259963508681
44.584756756757	1.0689807580945	1.1866026135413
44.840990990991	1.0305947514539	1.1927770436906
45.097225225225	1.0068849387109	1.2594986810781
45.353459459459	1.0446738664502	1.3553574179831
45.609693693694	1.1511359573959	1.4215517726484
45.865927927928	1.2849052952153	1.4111512470733
46.122162162162	1.3800160828042	1.3229154675378
46.378396396396	1.3882443229768	1.2063698457743
46.634630630631	1.3122286520499	1.1331323947874
46.890864864865	1.2066301811953	1.1520697438594
47.147099099099	1.1451300956961	1.2576029854225
47.403333333333	1.1740414338043	1.3928685656003
47.659567567568	1.2831878873778	1.4867523891393
47.915801801802	1.4141651794272	1.5008510462797
48.172036036036	1.5014725899340	1.4548108418380
48.428270270270	1.5194940276113	1.4120418164987
48.684504504505	1.5033041032623	1.4340854636370
48.940738738739	1.5277927893537	1.5335564438785
49.196972972973	1.6571960050155	1.6577916746983
49.453207207207	1.8975568465761	1.7160255352612
49.709441441441	2.1840250291199	1.6343860859738
49.965675675676	2.4130951710264	1.4040365508575
50.221909909910	2.5008486508470	1.0911470151075
50.478144144144	2.4309749296185	0.80128359861032
50.734378378378	2.2622991761609	0.61990745764822
50.990612612613	2.0911115320781	0.56608152224798
51.246846846847	1.9923280310286	0.58809552291047
51.503081081081	1.9768327860047	0.60287947130736
51.759315315315	1.9916381476068	0.55310426665975
52.015549549550	1.9616963257901	0.44482326496218
52.271783783784	1.8452894122179	0.34148437020606
52.528018018018	1.6662941219760	0.31870158385047
52.784252252252	1.5018148600144	0.40983199574654
53.040486486486	1.4328747478213	0.57856321903627
53.296720720721	1.4901919071859	0.73735119659860
53.552954954955	1.6307879378042	0.80077887854399
53.809189189189	1.7617236248167	0.73987144088815
54.065423423423	1.7969461583921	0.60202865235991
54.321657657658	1.7114391679808	0.48268395049952
54.577891891892	1.5577341212101	0.46564362068599
54.834126126126	1.4332343929023	0.56967174517092
55.090360360360	1.4182014842488	0.73581970275473
55.346594594595	1.5237031021914	0.86462791994987
55.602828828829	1.6834774930696	0.88032290970524
55.859063063063	1.7961642774281	0.78091235309059
56.115297297297	1.7916796038798	0.64094874654841
56.371531531532	1.6787263716519	0.56363982590486
56.627765765766	1.5412468642905	0.61234045653891
56.884000000000	1.4842746550282	0.76642604946354
57.140234234234	1.5635735122869	0.93218914581014
57.396468468468	1.7459827332020	1.0036896421820
57.652702702703	1.9287813521440	0.93430888776744
57.908936936937	2.0074200150286	0.77050416178962
58.165171171171	1.9471530065163	0.62284593845915
58.421405405405	1.8091676297169	0.59158388593880
58.677639639640	1.7110070372242	0.69650596110399
58.933873873874	1.7460551894120	0.86032295353624
59.190108108108	1.9168439583543	0.95959419973388
59.446342342342	2.1298190625794	0.91020982187180
59.702576576577	2.2579144774302	0.72841586698390
59.958810810811	2.2294205655748	0.52302208129291
60.215045045045	2.0810605348150	0.42140302032563
60.471279279279	1.9359656428014	0.47915990661486
60.727513513514	1.9190377891568	0.63704713301037
60.983747747748	2.0671910738242	0.75775404493654
61.239981981982	2.2977953514248	0.71979832248290
61.496216216216	2.4598299209564	0.50468711621646
61.752450450450	2.4350095757140	0.21618909915228
62.008684684685	2.2204204281144	0.016194737874897
62.264918918919	1.9354760933994	0.018995866617241
62.521153153153	1.7470176419164	0.21502500710564
62.777387387387	1.7620445961011	0.47571848314521
63.033621621622	1.9595581950918	0.63651297419634
63.289855855856	2.2064731178446	0.60261504924070
63.546090090090	2.3460843960716	0.40762041680077
63.802324324324	2.2997503144424	0.18745230734301
64.058558558559	2.1150756236400	0.088670320065890
64.314792792793	1.9307139821028	0.17268824168324
64.571027027027	1.8832031101156	0.37824892936319
64.827261261261	2.0180818047871	0.56461370547516
65.083495495495	2.2626409067526	0.60490041326522
65.339729729730	2.4759014668992	0.46770513121626
65.595963963964	2.5411966328621	0.23480522547704
65.852198198198	2.4405488300689	0.045488982250600
66.108432432432	2.2635996745032	0.0053365463336725
66.364666666667	2.1470663183239	0.11891830400941
66.620900900901	2.1852113839578	0.28906051856153
66.877135135135	2.3694673985919	0.38181389208870
67.133369369369	2.5956522966167	0.31417583122994
67.389603603604	2.7332872155878	0.10754549126988
67.645837837838	2.7115091929764	-0.12757161361298
67.902072072072	2.5654116959736	-0.26546464717403
68.158306306306	2.4122248967985	-0.24936414156680
68.414540540541	2.3724191636649	-0.13031800141377
68.670774774775	2.4872992449874	-0.034275232783861
68.927009009009	2.6879869587990	-0.077830334738957
69.183243243243	2.8378641164180	-0.28766499751382
69.439477477477	2.8222056256472	-0.57774555085060
69.695711711712	2.6264690708871	-0.80135050139862
69.951945945946	2.3505421173395	-0.84550401708559
70.208180180180	2.1475185452730	-0.70608973162065
70.464414414414	2.1257089990634	-0.49312718242561
70.720648648649	2.2781272390939	-0.36110220743785
70.976882882883	2.4867161748767	-0.40920019060203
71.233117117117	2.5994775761820	-0.61717510757245
71.489351351351	2.5299390689861	-0.85963637565551
71.745585585586	2.3130254513703	-0.98948029984259
72.001819819820	2.0802968973764	-0.93488167758810
72.258054054054	1.9715518155875	-0.74516526652203
72.514288288288	2.0424607883561	-0.55543202839616
72.770522522523	2.2301674362191	-0.49469344727830
73.026756756757	2.3991082607379	-0.60015038339481
73.282990990991	2.4347882473511	-0.79539775741432
73.539225225225	2.3211133700022	-0.94626495307138
73.795459459459	2.1488722243120	-0.95502741792430
74.051693693694	2.0505266590304	-0.82804071039828
74.307927927928	2.1068480089343	-0.67070393318001
74.564162162162	2.2897683943791	-0.61375633296826
74.820396396396	2.4806143279211	-0.72182933538649
75.076630630631	2.5512268358139	-0.94707093626728
75.332864864865	2.4526281157289	-1.1598135769973
75.589099099099	2.2507398985672	-1.2359132098052
75.845333333333	2.0843382777653	-1.1419742303360
76.101567567568	2.0727003297824	-0.96083602548904
76.357801801802	2.2342612549680	-0.83937489331913
76.614036036036	2.4706917838748	-0.89228012454361
76.870270270270	2.6279201506384	-1.1248436425734
77.126504504505	2.5951202539961	-1.4257686911863
77.382738738739	2.3776146392921	-1.6356098387336
77.638972972973	2.0962042449795	-1.6473737524307
77.895207207207	1.9127467514459	-1.4748487833618
78.151441441441	1.9292103435162	-1.2448188367863
78.407675675676	2.1244149578440	-1.1180490431272
78.663909909910	2.3684427362819	-1.1893912963524
78.920144144144	2.5049772092525	-1.4303827746735
79.176378378378	2.4486485774970	-1.7100932931772
79.432612612613	2.2355246731060	-1.8796785396248
79.688846846847	1.9957318472104	-1.8656272278939
79.945081081081	1.8676300216808	-1.7120925652937
80.201315315315	1.9101886677651	-1.5466577897348
80.457549549550	2.0701433266737	-1.4939850007624
80.713783783784	2.2235621584926	-1.5951792917539
80.970018018018	2.2622232834011	-1.7856505369952
81.226252252252	2.1662480361974	-1.9445026729951
81.482486486487	2.0146939131995	-1.9806825839896
81.738720720721	1.9280755430642	-1.8970996680159
81.994954954955	1.9825888442261	-1.7894620898746
82.251189189189	2.1545316957259	-1.7809456122186
82.507423423423	2.3327272386146	-1.9370973323626
82.763657657658	2.3907919918507	-2.2185875449681
83.019891891892	2.2708045342387	-2.5038836818017
83.276126126126	2.0222861063522	-2.6669424706506
83.532360360360	1.7703784767753	-2.6581555185992
83.788594594595	1.6344978839986	-2.5346750095904
84.044828828829	1.6517982906337	-2.4202051855421
84.301063063063	1.7563983769503	-2.4215891159440
84.557297297297	1.8277838036648	-2.5584131716953
84.813531531532	1.7752013021308	-2.7529896623766
85.069765765766	1.6004801570142	-2.8872565125868
85.326000000000	1.3961320851806	-2.8876192952595
85.582234234234	1.2794647505427	-2.7792567375456
85.838468468468	1.3074739456221	-2.6715107859744
86.094702702703	1.4315157832366	-2.6827398907928
86.350936936937	1.5248397598278	-2.8551235175474
86.607171171171	1.4666966006198	-3.1184576874426
86.863405405405	1.2270884182294	-3.3301833625979
87.119639639640	0.89378582279950	-3.3673616808519
87.375873873874	0.62079917947638	-3.2098272472575
87.632108108108	0.53046238779047	-2.9578118437617
87.888342342342	0.63373774092620	-2.7702998484709
88.144576576577	0.82247290058063	-2.7637733440634
88.400810810811	0.93961019021031	-2.9384276514742
88.657045045045	0.88080959886838	-3.1810766069042
88.913279279279	0.65958100537154	-3.3424008040844
89.169513513514	0.39283157973230	-3.3359634907671
89.425747747748	0.21797662082191	-3.1920533330713
89.681981981982	0.19919646694683	-3.0308963365460
89.938216216216	0.28705129857369	-2.9753921530385
90.194450450450	0.35803727123835	-3.0648026794698
90.450684684685	0.30503103095662	-3.2292794530725
90.706918918919	0.11458405870578	-3.3420959913211
90.963153153153	-0.12317210758699	-3.3120772148193
91.219387387387	-0.27876105532451	-3.1508240125879
91.475621621622	-0.27652000898614	-2.9671405372691
91.731855855856	-0.15112582225492	-2.8920019399142
91.988090090090	-0.027225709200768	-2.9860068451303
92.244324324324	-0.035226215352128	-3.1938835351714
92.500558558559	-0.22077149881695	-3.3785631011768
92.756792792793	-0.51042426765325	-3.4126708197095
93.013027027027	-0.75807775414986	-3.2655546583622
93.269261261261	-0.84163022742825	-3.0264164750704
93.525495495496	-0.74499590525232	-2.8471375555981
93.781729729730	-0.57012428090608	-2.8427186558156
94.037963963964	-0.47084409716811	-3.0159240239701
94.294198198198	-0.55296707704516	-3.2562640441445
94.550432432432	-0.80741588466670	-3.4131632695782
94.806666666667	-1.1201368330007	-3.3933785155187
95.062900900901	-1.3501921039419	-3.2173475614113
95.319135135135	-1.4217184571115	-2.9983444264108
95.575369369369	-1.3676238422286	-2.8615615128092
95.831603603604	-1.2978033752865	-2.8605436132830
96.087837837838	-1.3174227142932	-2.9480917161345
96.344072072072	-1.4543696812616	-3.0188080429185
96.600306306306	-1.6461847601895	-2.9896673732141
96.856540540541	-1.7927497330330	-2.8594512286013
97.112774774775	-1.8338038254669	-2.7051874703865
97.369009009009	-1.7938274867501	-2.6205903712922
